date Thu May 30 04:21:14.434 PM 2024
base hex  timestamps absolute
internal events logged
Begin Triggerblock Thu May 30 04:21:14.435 PM 2024
 0.000000 Start of measurement
 0.000000 1  1D8             Rx   d 8 0F 00 36 00 00 00 00 00
 0.000223 1  7D4             Rx   d 8 01 00 00 00 00 00 00 00
 0.000500 1  7D4             Rx   d 8 02 00 00 00 00 00 00 00
 0.000757 1  7D4             Rx   d 8 03 1E 00 F6 FF 29 00 00
 0.001009 1  7D4             Rx   d 8 04 00 00 00 00 F8 FF FF
 0.001273 1  7D4             Rx   d 8 05 00 00 00 00 40 00 00
 0.001917 1  FAx             Tx   d 7 01 32 41 00 78 14 02
 0.002000 1  FCx             Tx   d 4 02 30 80 40
 0.002143 1  FBx             Tx   d 6 03 10 02 00 02 00
 0.003445 1  18A             Rx   d 8 20 0F B8 0B 00 B8 0B 00
 0.003700 1  7D6             Rx   d 8 00 00 00 00 00 00 0E 00
 0.003951 1  18B             Rx   d 6 00 00 00 00 00 00
 0.004227 1  126             Rx   d 6 00 00 02 00 B6 03
 0.004515 1  266             Rx   d 8 00 00 36 36 00 00 00 00
 0.004771 1  1D6             Rx   d 8 10 00 02 00 F3 0D 00 00
 0.005057 1  256             Rx   d 8 D4 0F C2 06 01 A4 00 00
 0.005058 1  279             Rx   d 3 00 04 02
 0.005313 1  108             Rx   d 8 1B 0F 00 00 00 03 00 00
 0.005560 1  395             Rx   d 8 F7 11 FF FF FF FF 00 7D
 0.005790 1  53B             Rx   d 8 28 00 0D 00 CF FF E2 FF
 0.006054 1  210             Rx   d 8 00 00 00 00 00 00 00 00
 0.006276 1  7D6             Rx   d 8 01 00 00 00 00 00 00 00
 0.006527 1  128             Rx   d 8 06 00 00 00 00 00 00 00
 0.006810 1  7D6             Rx   d 8 02 00 00 00 02 00 00 00
 0.006941 1  FAx             Tx   d 7 01 11 41 00 3C 2C 00
 0.006993 1  FCx             Tx   d 4 00 00 C0 20
 0.007163 1  268             Rx   d 5 36 36 FF 01 FF
 0.007267 1  FBx             Tx   d 6 01 20 01 00 01 00
 0.007592 1  7D6             Rx   d 8 21 00 00 00 00 00 00 00
 0.007593 1  7D7             Rx   d 8 00 00 C0 FF 03 00 FC 3F
 0.007946 1  7D6             Rx   d 8 22 00 00 00 00 00 00 00
 0.008346 1  7D6             Rx   d 8 23 00 00 00 00 00 00 00
 0.008677 1  7D6             Rx   d 8 24 00 00 00 40 00 FC FF
 0.009184 1  7D5             Rx   d 8 20 18 00 00 00 00 14 00
 0.009445 1  7D5             Rx   d 8 21 DD 00 00 00 00 FA 14
 0.009674 1  7D5             Rx   d 8 22 66 00 00 00 00 00 00
 0.009925 1  7D5             Rx   d 8 23 FA 00 00 00 00 00 00
 0.010181 1  1D8             Rx   d 8 10 01 36 00 00 00 00 00
 0.010477 1  7D4             Rx   d 8 01 00 00 00 00 00 00 00
 0.010703 1  7D5             Rx   d 8 24 FA 00 00 00 00 00 00
 0.010927 1  7D4             Rx   d 8 02 00 00 00 00 00 00 00
 0.011190 1  7D5             Rx   d 8 25 FF 00 00 00 00 23 3D
 0.011483 1  7D4             Rx   d 8 03 0A 00 05 00 2B 00 00
 0.011770 1  7D5             Rx   d 8 26 51 7B 34 04 00 06 00
 0.011991 1  FAx             Tx   d 7 03 13 00 00 00 2C 01
 0.012010 1  FCx             Tx   d 4 01 00 00 60
 0.012108 1  7D4             Rx   d 8 04 00 00 00 00 03 00 FF
 0.012244 1  FBx             Tx   d 6 00 20 02 00 01 00
 0.012529 1  7D5             Rx   d 8 27 9F 46 78 FA FA FA BF
 0.012530 1  7D4             Rx   d 8 05 00 00 00 00 40 00 00
 0.012874 1  7D5             Rx   d 8 28 FA FA 00 00 00 00 00
 0.013291 1  7D5             Rx   d 8 29 00 00 00 00 00 10 27
 0.013567 1  18A             Rx   d 8 11 00 B8 0B 00 B8 0B 00
 0.014022 1  18B             Rx   d 6 00 00 00 00 00 00
 0.014344 1  7D5             Rx   d 8 2A FA 09 FA 43 00 00 80
 0.014596 1  266             Rx   d 8 00 00 36 36 00 00 00 00
 0.014829 1  7D5             Rx   d 8 2B 00 00 00 00 00 00 00
 0.015067 1  256             Rx   d 8 C7 00 C2 06 01 A6 00 00
 0.015315 1  7D6             Rx   d 8 00 00 00 00 00 00 21 00
 0.015557 1  108             Rx   d 8 0B 00 00 00 00 02 00 00
 0.015808 1  7D6             Rx   d 8 01 00 00 00 00 00 00 00
 0.016027 1  7D6             Rx   d 8 02 00 00 00 03 00 00 00
 0.016283 1  7D5             Rx   d 8 2E CD FF FF 00 00 00 00
 0.016515 1  7D5             Rx   d 8 2F 00 00 00 00 00 46 00
 0.016781 1  7D5             Rx   d 8 30 76 76 9C 7B 01 00 00
 0.016995 1  FAx             Tx   d 7 03 03 41 00 3C 14 02
 0.017103 1  7D5             Rx   d 8 31 00 00 00 00 00 00 00
 0.017106 1  FCx             Tx   d 4 00 30 C0 20
 0.017214 1  FBx             Tx   d 6 02 10 03 00 03 00
 0.017556 1  7D5             Rx   d 8 32 60 36 BC 00 00 00 00
 0.017557 1  7D5             Rx   d 8 34 00 5E 60 45 45 00 00
 0.018097 1  7D5             Rx   d 8 3F 00 00 00 00 00 00 00
 0.019954 1  1D8             Rx   d 8 11 02 36 00 00 00 00 00
 0.020220 1  7D4             Rx   d 8 01 00 00 00 00 00 00 00
 0.020474 1  7D4             Rx   d 8 02 00 00 00 00 00 00 00
 0.020730 1  7D4             Rx   d 8 03 1E 00 D8 FF 2B 00 00
 0.020979 1  7D4             Rx   d 8 04 00 00 00 00 03 00 FF
 0.021220 1  7D4             Rx   d 8 05 00 00 00 00 40 00 00
 0.021501 1  73B             Rx   d 8 00 49 FA 00 00 00 00 00
 0.021756 1  7D4             Rx   d 8 10 00 00 00 00 00 00 00
 0.021969 1  7D4             Rx   d 8 11 00 62 28 21 21 21 00
 0.022021 1  FAx             Tx   d 7 01 13 41 00 00 14 00
 0.022072 1  FCx             Tx   d 4 03 00 80 40
 0.022305 1  FBx             Tx   d 6 01 10 01 00 01 00
 0.022444 1  7D4             Rx   d 8 12 00 C0 FF 03 00 FC 3F
 0.023570 1  18A             Rx   d 8 12 01 B8 0B 00 B8 0B 00
 0.023880 1  7D6             Rx   d 8 00 00 00 00 00 00 0F 00
 0.024149 1  18B             Rx   d 6 00 00 00 00 00 00
 0.024444 1  7D6             Rx   d 8 01 00 00 00 00 00 00 00
 0.024757 1  266             Rx   d 8 00 00 36 36 00 00 00 00
 0.025051 1  7D6             Rx   d 8 02 00 00 00 03 00 00 00
 0.025052 1  256             Rx   d 8 C8 01 C2 06 01 A6 00 00
 0.025280 1  108             Rx   d 8 0C 01 00 00 00 02 00 00
 0.027006 1  FAx             Tx   d 7 03 03 82 00 B4 14 03
 0.027119 1  FCx             Tx   d 4 02 10 00 00
 0.027224 1  FBx             Tx   d 6 01 20 01 00 00 00
 0.029955 1  1D8             Rx   d 8 12 03 36 00 00 00 00 00
 0.030221 1  7D4             Rx   d 8 01 00 00 00 00 00 00 00
 0.030472 1  7D4             Rx   d 8 02 00 00 00 00 00 00 00
 0.030731 1  7D4             Rx   d 8 03 2D 00 E7 FF 2B 00 00
 0.030999 1  7D4             Rx   d 8 04 00 00 00 00 03 00 FF
 0.031266 1  7D4             Rx   d 8 05 00 00 00 00 40 00 00
 0.032016 1  FAx             Tx   d 7 03 23 C2 00 78 40 03
 0.032067 1  FCx             Tx   d 4 03 00 00 60
 0.032224 1  FBx             Tx   d 6 03 10 03 00 02 00
 0.033473 1  18A             Rx   d 8 13 02 B8 0B 00 B8 0B 00
 0.033731 1  7D6             Rx   d 8 00 00 00 00 00 00 06 00
 0.033998 1  18B             Rx   d 6 00 00 00 00 00 00
 0.034246 1  7D6             Rx   d 8 01 00 00 00 00 00 00 00
 0.034449 1  266             Rx   d 8 00 00 36 36 00 00 00 00
 0.034705 1  7D6             Rx   d 8 02 00 00 00 03 00 00 00
 0.034946 1  256             Rx   d 8 C8 02 C2 06 01 A5 00 00
 0.035203 1  108             Rx   d 8 0D 02 00 00 00 02 00 00
 0.037059 1  FAx             Tx   d 7 01 20 41 00 B4 2C 03
 0.037077 1  57B             Rx   d 3 0D 28 43
 0.037131 1  FCx             Tx   d 4 03 20 00 00
 0.037319 1  FBx             Tx   d 6 03 20 02 00 03 00
 0.039971 1  1D8             Rx   d 8 13 04 36 00 00 00 00 00
 0.040255 1  7D4             Rx   d 8 01 00 00 00 00 00 00 00
 0.040475 1  7D4             Rx   d 8 02 00 00 00 00 00 00 00
 0.040761 1  7D4             Rx   d 8 03 1E 00 EC FF 2B 00 00
 0.041005 1  7D4             Rx   d 8 04 00 00 00 00 E6 FF FF
 0.041232 1  7D4             Rx   d 8 05 00 00 00 00 40 00 00
 0.042069 1  FAx             Tx   d 7 00 30 C2 00 00 40 03
 0.042099 1  FCx             Tx   d 4 01 00 40 20
 0.042235 1  FBx             Tx   d 6 02 00 02 00 01 00
 0.043530 1  18A             Rx   d 8 14 03 B8 0B 00 B8 0B 00
 0.043786 1  7D6             Rx   d 8 00 00 00 00 00 00 0A 00
 0.044034 1  18B             Rx   d 6 00 00 00 00 00 00
 0.044274 1  7D6             Rx   d 8 01 00 00 00 00 00 00 00
 0.044528 1  266             Rx   d 8 00 00 36 36 00 00 00 00
 0.044761 1  7D6             Rx   d 8 02 00 00 00 03 00 00 00
 0.045030 1  256             Rx   d 8 C7 03 C2 06 01 A3 00 00
 0.045235 1  108             Rx   d 8 0E 03 00 00 00 02 00 00
 0.047069 1  FAx             Tx   d 7 01 21 00 00 78 2C 03
 0.047122 1  FCx             Tx   d 4 01 10 80 20
 0.047285 1  FBx             Tx   d 6 00 00 03 00 03 00
 0.049960 1  1D8             Rx   d 8 14 05 36 00 00 00 00 00
 0.050225 1  7D4             Rx   d 8 01 00 00 00 00 00 00 00
 0.050475 1  7D4             Rx   d 8 02 00 00 00 00 00 00 00
 0.050736 1  7D4             Rx   d 8 03 2D 00 DD FF 2B 00 00
 0.051034 1  7D4             Rx   d 8 04 00 00 00 00 04 00 FF
 0.051228 1  7D4             Rx   d 8 05 00 00 00 00 40 00 00
 0.052124 1  FAx             Tx   d 7 02 13 41 00 B4 14 01
 0.052172 1  FCx             Tx   d 4 00 30 80 00
 0.052297 1  FBx             Tx   d 6 03 00 02 00 01 00
 0.053582 1  18A             Rx   d 8 15 04 B8 0B 00 B8 0B 00
 0.053888 1  7D6             Rx   d 8 00 00 00 00 00 00 10 00
 0.054154 1  18B             Rx   d 6 00 00 00 00 00 00
 0.054499 1  7D6             Rx   d 8 01 00 00 00 00 00 00 00
 0.054711 1  266             Rx   d 8 00 00 36 36 00 00 00 00
 0.055050 1  7D6             Rx   d 8 02 00 00 00 E6 FF 00 00
 0.055052 1  256             Rx   d 8 C9 04 C2 06 01 A4 00 00
 0.055301 1  108             Rx   d 8 0E 04 00 00 00 01 00 00
 0.057175 1  FAx             Tx   d 7 00 03 00 00 3C 2C 00
 0.057197 1  FCx             Tx   d 4 00 00 00 00
 0.057386 1  FBx             Tx   d 6 02 00 00 00 00 00
 0.059962 1  1D8             Rx   d 8 15 06 36 00 00 00 00 00
 0.060227 1  7D4             Rx   d 8 01 00 00 00 00 00 00 00
 0.060521 1  7D4             Rx   d 8 02 00 00 00 00 00 00 00
 0.060778 1  7D4             Rx   d 8 03 1E 00 E7 FF 2A 00 00
 0.061020 1  7D4             Rx   d 8 04 00 00 00 00 02 00 FF
 0.061266 1  7D4             Rx   d 8 05 00 00 00 00 40 00 00
 0.062186 1  FAx             Tx   d 7 01 20 C2 00 3C 14 00
 0.062211 1  FCx             Tx   d 4 01 10 00 20
 0.062376 1  FBx             Tx   d 6 01 00 03 00 01 00
 0.063633 1  18A             Rx   d 8 16 05 B8 0B 00 B8 0B 00
 0.063890 1  7D6             Rx   d 8 00 00 00 00 00 00 08 00
 0.064168 1  18B             Rx   d 6 00 00 00 00 00 00
 0.064455 1  7D6             Rx   d 8 01 00 00 00 00 00 00 00
 0.064711 1  266             Rx   d 8 00 00 36 36 00 00 00 00
 0.064974 1  7D6             Rx   d 8 02 00 00 00 04 00 00 00
 0.065262 1  256             Rx   d 8 CD 05 C2 06 01 A7 00 00
 0.065545 1  108             Rx   d 8 10 05 00 00 00 02 00 00
 0.067206 1  FAx             Tx   d 7 02 22 C2 00 B4 00 03
 0.067247 1  FCx             Tx   d 4 00 30 00 60
 0.067401 1  FBx             Tx   d 6 02 20 03 00 00 00
 0.069967 1  1D8             Rx   d 8 16 07 36 00 00 00 00 00
 0.070281 1  7D4             Rx   d 8 01 00 00 00 00 00 00 00
 0.070581 1  54B             Rx   d 4 00 64 00 00
 0.070903 1  7D4             Rx   d 8 02 00 00 00 00 00 00 00
 0.070904 1  7D4             Rx   d 8 03 28 00 CF FF 2A 00 00
 0.071143 1  7D4             Rx   d 8 04 00 00 00 00 02 00 FF
 0.071468 1  73B             Rx   d 8 01 00 80 00 80 F4 01 00
 0.071779 1  7D4             Rx   d 8 05 00 00 00 00 40 00 00
 0.072039 1  7D4             Rx   d 8 10 00 00 00 00 00 00 00
 0.072264 1  FAx             Tx   d 7 02 32 82 00 B4 40 00
 0.072289 1  FCx             Tx   d 4 01 20 80 20
 0.072473 1  7D4             Rx   d 8 11 00 62 28 21 21 21 00
 0.072502 1  FBx             Tx   d 6 03 20 02 00 02 00
 0.072911 1  7D4             Rx   d 8 12 00 C0 FF 03 00 FC 3F
 0.073481 1  18A             Rx   d 8 17 06 B8 0B 00 B8 0B 00
 0.073961 1  18B             Rx   d 6 00 00 00 00 00 00
 0.074198 1  7D6             Rx   d 8 00 00 00 00 00 00 0F 00
 0.074459 1  266             Rx   d 8 00 00 36 36 00 00 00 00
 0.074750 1  7D6             Rx   d 8 01 00 00 00 00 00 00 00
 0.074961 1  256             Rx   d 8 CD 06 C2 06 01 A6 00 00
 0.075252 1  7D6             Rx   d 8 02 00 00 00 02 00 00 00
 0.075468 1  108             Rx   d 8 10 06 00 00 00 01 00 00
 0.077291 1  FAx             Tx   d 7 00 22 82 00 3C 40 01
 0.077292 1  FCx             Tx   d 4 00 00 80 00
 0.077457 1  FBx             Tx   d 6 00 20 03 00 01 00
 0.079964 1  1D8             Rx   d 8 0F 00 36 00 00 00 00 00
 0.080275 1  7D4             Rx   d 8 01 00 00 00 00 00 00 00
 0.080490 1  7D4             Rx   d 8 02 00 00 00 00 00 00 00
 0.080779 1  7D4             Rx   d 8 03 0F 00 E7 FF 2B 00 00
 0.080997 1  7D4             Rx   d 8 04 00 00 00 00 03 00 FF
 0.081271 1  7D4             Rx   d 8 05 00 00 00 00 40 00 00
 0.082309 1  FAx             Tx   d 7 02 30 41 00 00 2C 01
 0.082334 1  FCx             Tx   d 4 03 20 00 60
 0.082458 1  FBx             Tx   d 6 03 20 02 00 03 00
 0.083458 1  18A             Rx   d 8 18 07 B8 0B 00 B8 0B 00
 0.083933 1  18B             Rx   d 6 00 00 00 00 00 00
 0.084207 1  7D6             Rx   d 8 00 00 00 00 00 00 08 00
 0.084486 1  266             Rx   d 8 00 00 36 36 00 00 00 00
 0.084717 1  7D6             Rx   d 8 01 00 00 00 00 00 00 00
 0.084967 1  256             Rx   d 8 CD 07 C2 06 01 A5 00 00
 0.085235 1  7D6             Rx   d 8 02 00 00 00 03 00 00 00
 0.085486 1  108             Rx   d 8 13 07 00 00 00 03 00 00
 0.087327 1  FAx             Tx   d 7 00 01 00 00 00 2C 03
 0.087351 1  FCx             Tx   d 4 00 00 C0 40
 0.087575 1  FBx             Tx   d 6 01 10 02 00 03 00
 0.088851 1  94              Rx   d 1 00
 0.089988 1  1D8             Rx   d 8 10 01 36 00 00 00 00 00
 0.090266 1  7D4             Rx   d 8 01 00 00 00 00 00 00 00
 0.090519 1  7D4             Rx   d 8 02 00 00 00 00 00 00 00
 0.090750 1  7D4             Rx   d 8 03 40 00 F6 FF 2A 00 00
 0.090961 1  7D4             Rx   d 8 04 00 00 00 00 02 00 FF
 0.091235 1  7D4             Rx   d 8 05 00 00 00 00 40 00 00
 0.092322 1  FAx             Tx   d 7 00 31 82 00 00 2C 00
 0.092372 1  FCx             Tx   d 4 03 30 80 60
 0.092583 1  FBx             Tx   d 6 01 10 01 00 00 00
 0.093514 1  18A             Rx   d 8 19 08 B8 0B 00 B8 0B 00
 0.093976 1  18B             Rx   d 6 00 00 00 00 00 00
 0.094272 1  7D6             Rx   d 8 00 00 00 00 00 00 1A 00
 0.094518 1  266             Rx   d 8 00 00 36 36 00 00 00 00
 0.094746 1  7D6             Rx   d 8 01 00 00 00 00 00 00 00
 0.094960 1  256             Rx   d 8 CC 08 C2 06 01 A3 00 00
 0.095243 1  7D6             Rx   d 8 02 00 00 00 03 00 00 00
 0.095492 1  108             Rx   d 8 13 08 00 00 00 02 00 00
 0.097413 1  FAx             Tx   d 7 02 12 41 00 3C 2C 02
 0.097454 1  FCx             Tx   d 4 02 00 80 20
 0.097616 1  FBx             Tx   d 6 02 10 02 00 00 00
 0.099963 1  1D8             Rx   d 8 11 02 36 00 00 00 00 00
 0.100236 1  7D4             Rx   d 8 01 00 00 00 00 00 00 00
 0.100514 1  7D4             Rx   d 8 02 00 00 00 00 00 00 00
 0.100782 1  7D4             Rx   d 8 03 1E 00 F1 FF 2B 00 00
 0.101026 1  7D4             Rx   d 8 04 00 00 00 00 01 00 FF
 0.101253 1  7D4             Rx   d 8 05 00 00 00 00 40 00 00
 0.102490 1  FAx             Tx   d 7 03 30 C2 00 B4 2C 01
 0.102509 1  FCx             Tx   d 4 02 20 80 60
 0.102673 1  FBx             Tx   d 6 00 00 03 00 00 00
 0.103657 1  18A             Rx   d 8 1A 09 B8 0B 00 B8 0B 00
 0.104102 1  18B             Rx   d 6 00 00 00 00 00 00
 0.104339 1  126             Rx   d 6 00 00 02 00 B6 03
 0.104687 1  266             Rx   d 8 00 00 36 36 00 00 00 00
 0.104979 1  1D6             Rx   d 8 10 00 02 00 F3 0D 00 00
 0.105238 1  256             Rx   d 8 CE 09 C2 06 01 A4 00 00
 0.105239 1  279             Rx   d 3 00 04 02
 0.105481 1  108             Rx   d 8 13 09 00 00 00 01 00 00
 0.105708 1  395             Rx   d 8 F7 11 FF FF FF FF 00 7D
 0.105957 1  53B             Rx   d 8 28 00 0C 00 D8 FF E1 FF
 0.106250 1  210             Rx   d 8 00 00 00 00 00 00 00 00
 0.106497 1  7D6             Rx   d 8 00 00 00 00 00 00 34 00
 0.106724 1  128             Rx   d 8 06 00 00 00 00 00 00 00
 0.106977 1  7D6             Rx   d 8 01 00 00 00 00 00 00 00
 0.107294 1  268             Rx   d 5 36 36 FF 01 FF
 0.107485 1  FAx             Tx   d 7 01 31 C2 00 B4 14 00
 0.107502 1  FCx             Tx   d 4 00 10 00 20
 0.107580 1  7D6             Rx   d 8 02 00 00 00 03 00 00 00
 0.107581 1  7D7             Rx   d 8 00 00 C0 FF 03 00 FC 3F
 0.107828 1  FBx             Tx   d 6 03 00 00 00 00 00
 0.108003 1  7D6             Rx   d 8 21 00 00 00 00 00 00 00
 0.108451 1  7D6             Rx   d 8 22 00 00 00 00 00 00 00
 0.108810 1  7D6             Rx   d 8 23 00 00 00 00 00 00 00
 0.109114 1  7D6             Rx   d 8 24 00 00 00 30 00 FC FF
 0.109573 1  7D5             Rx   d 8 20 18 00 00 00 00 14 00
 0.109833 1  7D5             Rx   d 8 21 DD 00 00 00 00 FA 14
 0.110107 1  1D8             Rx   d 8 12 03 36 00 00 00 00 00
 0.110351 1  7D4             Rx   d 8 01 00 00 00 00 00 00 00
 0.110711 1  7D5             Rx   d 8 22 66 00 00 00 00 00 00
 0.110961 1  7D4             Rx   d 8 02 00 00 00 00 00 00 00
 0.111240 1  7D5             Rx   d 8 23 FA 00 00 00 00 00 00
 0.111533 1  7D4             Rx   d 8 03 1E 00 E2 FF 2B 00 00
 0.111533 1  7D5             Rx   d 8 24 FA 00 00 00 00 00 00
 0.111823 1  7D4             Rx   d 8 04 00 00 00 00 04 00 FF
 0.112056 1  7D5             Rx   d 8 25 FF 00 00 00 00 79 3A
 0.112345 1  7D4             Rx   d 8 05 00 00 00 00 40 00 00
 0.112509 1  FAx             Tx   d 7 01 03 41 00 3C 14 02
 0.112525 1  FCx             Tx   d 4 02 20 00 60
 0.112659 1  7D5             Rx   d 8 26 51 7B 34 04 00 05 00
 0.112793 1  FBx             Tx   d 6 02 10 03 00 00 00
 0.113130 1  7D5             Rx   d 8 27 9F 46 78 FA FA FA BF
 0.113131 1  7D5             Rx   d 8 28 FA FA 00 00 00 00 00
 0.113506 1  7D5             Rx   d 8 29 00 00 00 00 00 10 27
 0.113906 1  18A             Rx   d 8 1B 0A B8 0B 00 B8 0B 00
 0.114223 1  18B             Rx   d 6 00 00 00 00 00 00
 0.114718 1  266             Rx   d 8 00 00 36 36 00 00 00 00
 0.114978 1  7D5             Rx   d 8 2A FA 09 FA 43 00 00 80
 0.115213 1  256             Rx   d 8 D2 0A C2 06 01 A7 00 00
 0.115475 1  7D5             Rx   d 8 2B 00 00 00 00 00 00 00
 0.115705 1  108             Rx   d 8 16 0A 00 00 00 03 00 00
 0.115974 1  7D6             Rx   d 8 00 00 00 00 00 00 12 00
 0.116207 1  7D6             Rx   d 8 01 00 00 00 00 00 00 00
 0.116475 1  7D6             Rx   d 8 02 00 00 00 F9 FF 00 00
 0.116706 1  7D5             Rx   d 8 2E CD FF FF 00 00 00 00
 0.116960 1  7D5             Rx   d 8 2F 00 00 00 00 00 46 00
 0.117188 1  7D5             Rx   d 8 30 76 76 9C 7B 01 00 00
 0.117472 1  7D5             Rx   d 8 31 00 00 00 00 00 00 00
 0.117499 1  FAx             Tx   d 7 00 01 00 00 00 14 00
 0.117580 1  FCx             Tx   d 4 01 30 C0 60
 0.117732 1  FBx             Tx   d 6 01 10 03 00 03 00
 0.118035 1  7D5             Rx   d 8 32 60 36 BC 00 00 00 00
 0.118036 1  7D5             Rx   d 8 34 00 5E 60 44 45 00 00
 0.118482 1  7D5             Rx   d 8 3F 00 00 00 00 00 00 00
 0.119984 1  1D8             Rx   d 8 13 04 36 00 00 00 00 00
 0.120253 1  7D4             Rx   d 8 01 00 00 00 00 00 00 00
 0.120509 1  7D4             Rx   d 8 02 00 00 00 00 00 00 00
 0.120714 1  7D4             Rx   d 8 03 2D 00 EC FF 2B 00 00
 0.121026 1  7D4             Rx   d 8 04 00 00 00 00 02 00 FF
 0.121227 1  7D4             Rx   d 8 05 00 00 00 00 40 00 00
 0.121470 1  73B             Rx   d 8 02 00 00 00 00 00 00 00
 0.121760 1  7D4             Rx   d 8 10 00 00 00 00 00 00 00
 0.122000 1  7D4             Rx   d 8 11 00 62 28 21 21 21 00
 0.122208 1  7D4             Rx   d 8 12 00 C0 FF 03 00 FC 3F
 0.122552 1  FAx             Tx   d 7 02 01 41 00 B4 2C 03
 0.122552 1  FCx             Tx   d 4 03 20 40 20
 0.122748 1  FBx             Tx   d 6 02 30 03 00 02 00
 0.123507 1  18A             Rx   d 8 1C 0B B8 0B 00 B8 0B 00
 0.123907 1  18B             Rx   d 6 00 00 00 00 00 00
 0.124499 1  266             Rx   d 8 00 00 36 36 00 00 00 00
 0.124702 1  7D6             Rx   d 8 00 00 00 00 00 00 0F 00
 0.124955 1  256             Rx   d 8 D2 0B C2 06 01 A6 00 00
 0.125195 1  7D6             Rx   d 8 01 00 00 00 00 00 00 00
 0.125469 1  108             Rx   d 8 0D 0B 00 00 00 FA FF 00
 0.125702 1  7D6             Rx   d 8 02 00 00 00 03 00 00 00
 0.127571 1  FAx             Tx   d 7 01 22 00 00 78 2C 00
 0.127571 1  FCx             Tx   d 4 02 10 40 40
 0.127734 1  FBx             Tx   d 6 03 20 01 00 00 00
 0.129928 1  1D8             Rx   d 8 14 05 36 00 00 00 00 00
 0.130220 1  7D4             Rx   d 8 01 00 00 00 00 00 00 00
 0.130499 1  7D4             Rx   d 8 02 00 00 00 00 00 00 00
 0.130703 1  7D4             Rx   d 8 03 1E 00 EC FF 2B 00 00
 0.130952 1  7D4             Rx   d 8 04 00 00 00 00 03 00 FF
 0.131206 1  7D4             Rx   d 8 05 00 00 00 00 40 00 00
 0.132595 1  FAx             Tx   d 7 01 22 C2 00 3C 40 01
 0.132606 1  FCx             Tx   d 4 02 20 80 60
 0.132771 1  FBx             Tx   d 6 03 20 02 00 02 00
 0.133500 1  18A             Rx   d 8 1D 0C B8 0B 00 B8 0B 00
 0.133942 1  18B             Rx   d 6 00 00 00 00 00 00
 0.134471 1  266             Rx   d 8 00 00 36 36 00 00 00 00
 0.134705 1  7D6             Rx   d 8 00 00 00 00 00 00 22 00
 0.134943 1  256             Rx   d 8 D2 0C C2 06 01 A5 00 00
 0.135208 1  7D6             Rx   d 8 01 00 00 00 00 00 00 00
 0.135471 1  108             Rx   d 8 17 0C 00 00 00 02 00 00
 0.135680 1  7D6             Rx   d 8 02 00 00 00 02 00 00 00
 0.137121 1  57B             Rx   d 3 0D 28 43
 0.137627 1  FAx             Tx   d 7 01 33 00 00 B4 00 00
 0.137686 1  FCx             Tx   d 4 01 00 40 20
 0.137791 1  FBx             Tx   d 6 00 20 03 00 02 00
 0.139980 1  1D8             Rx   d 8 15 06 36 00 00 00 00 00
 0.140247 1  7D4             Rx   d 8 01 00 00 00 00 00 00 00
 0.140473 1  7D4             Rx   d 8 02 00 00 00 00 00 00 00
 0.140729 1  7D4             Rx   d 8 03 23 00 EC FF 2A 00 00
 0.141000 1  7D4             Rx   d 8 04 00 00 00 00 02 00 FF
 0.141258 1  7D4             Rx   d 8 05 00 00 00 00 40 00 00
 0.142681 1  FAx             Tx   d 7 00 12 41 00 78 2C 00
 0.142701 1  FCx             Tx   d 4 01 00 00 40
 0.142869 1  FBx             Tx   d 6 02 20 02 00 01 00
 0.143597 1  18A             Rx   d 8 1E 0D B8 0B 00 B8 0B 00
 0.144024 1  18B             Rx   d 6 00 00 00 00 00 00
 0.144525 1  266             Rx   d 8 00 00 36 36 00 00 00 00
 0.144779 1  7D6             Rx   d 8 00 00 00 00 00 00 17 00
 0.145065 1  256             Rx   d 8 D1 0D C2 06 01 A3 00 00
 0.145304 1  7D6             Rx   d 8 01 00 00 00 00 00 00 00
 0.145553 1  108             Rx   d 8 18 0D 00 00 00 02 00 00
 0.145809 1  7D6             Rx   d 8 02 00 00 00 04 00 00 00
 0.147667 1  FAx             Tx   d 7 00 12 82 00 3C 2C 03
 0.147717 1  FCx             Tx   d 4 00 00 80 40
 0.147889 1  FBx             Tx   d 6 00 30 00 00 03 00
 0.149954 1  1D8             Rx   d 8 16 07 36 00 00 00 00 00
 0.150218 1  7D4             Rx   d 8 01 00 00 00 00 00 00 00
 0.150498 1  7D4             Rx   d 8 02 00 00 00 00 00 00 00
 0.150730 1  7D4             Rx   d 8 03 1E 00 EC FF 2A 00 00
 0.150954 1  7D4             Rx   d 8 04 00 00 00 00 02 00 FF
 0.151205 1  7D4             Rx   d 8 05 00 00 00 00 40 00 00
 0.152708 1  FAx             Tx   d 7 00 00 82 00 00 00 02
 0.152764 1  FCx             Tx   d 4 00 00 C0 40
 0.152951 1  FBx             Tx   d 6 00 30 02 00 01 00
 0.153624 1  18A             Rx   d 8 1F 0E B8 0B 00 B8 0B 00
 0.154078 1  18B             Rx   d 6 00 00 00 00 00 00
 0.154594 1  266             Rx   d 8 00 00 36 36 00 00 00 00
 0.154854 1  7D6             Rx   d 8 00 00 00 00 00 00 18 00
 0.155099 1  256             Rx   d 8 D3 0E C2 06 01 A4 00 00
 0.155335 1  7D6             Rx   d 8 01 00 00 00 00 00 00 00
 0.155598 1  108             Rx   d 8 1A 0E 00 00 00 03 00 00
 0.155828 1  7D6             Rx   d 8 02 00 00 00 02 00 00 00
 0.157707 1  FAx             Tx   d 7 01 22 C2 00 3C 14 03
 0.157764 1  FCx             Tx   d 4 01 00 80 40
 0.157901 1  FBx             Tx   d 6 03 10 01 00 01 00
 0.159982 1  1D8             Rx   d 8 0F 00 36 00 00 00 00 00
 0.160244 1  7D4             Rx   d 8 01 00 00 00 00 00 00 00
 0.160501 1  7D4             Rx   d 8 02 00 00 00 00 00 00 00
 0.160708 1  7D4             Rx   d 8 03 31 00 F6 FF 2A 00 00
 0.160992 1  7D4             Rx   d 8 04 00 00 00 00 E6 FF FF
 0.161231 1  7D4             Rx   d 8 05 00 00 00 00 40 00 00
 0.162731 1  FAx             Tx   d 7 00 13 C2 00 78 00 00
 0.162818 1  FCx             Tx   d 4 03 30 40 00
 0.162910 1  FBx             Tx   d 6 03 30 03 00 01 00
 0.163627 1  18A             Rx   d 8 20 0F B8 0B 00 B8 0B 00
 0.164052 1  18B             Rx   d 6 00 00 00 00 00 00
 0.164555 1  266             Rx   d 8 00 00 36 36 00 00 00 00
 0.164843 1  7D6             Rx   d 8 00 00 00 00 00 00 0F 00
 0.165053 1  256             Rx   d 8 D7 0F C2 06 01 A7 00 00
 0.165310 1  7D6             Rx   d 8 01 00 00 00 00 00 00 00
 0.165599 1  108             Rx   d 8 1B 0F 00 00 00 03 00 00
 0.165828 1  7D6             Rx   d 8 02 00 00 00 03 00 00 00
 0.167775 1  FAx             Tx   d 7 00 20 C2 00 00 00 02
 0.167847 1  FCx             Tx   d 4 02 30 80 40
 0.167948 1  FBx             Tx   d 6 00 10 02 00 02 00
 0.169956 1  1D8             Rx   d 8 10 01 36 00 00 00 00 00
 0.170274 1  7D4             Rx   d 8 01 00 00 00 00 00 00 00
 0.170597 1  54B             Rx   d 4 00 64 00 00
 0.170879 1  7D4             Rx   d 8 02 00 00 00 00 00 00 00
 0.170880 1  7D4             Rx   d 8 03 19 00 00 00 2C 00 00
 0.171124 1  7D4             Rx   d 8 04 00 00 00 00 02 00 FF
 0.171448 1  73B             Rx   d 8 03 00 00 00 00 00 00 00
 0.171758 1  7D4             Rx   d 8 05 00 00 00 00 40 00 00
 0.172024 1  7D4             Rx   d 8 10 00 00 00 00 00 00 00
 0.172284 1  7D4             Rx   d 8 11 00 62 28 21 21 21 00
 0.172557 1  7D4             Rx   d 8 12 00 C0 FF 03 00 FC 3F
 0.172789 1  FAx             Tx   d 7 02 21 41 00 3C 14 01
 0.172870 1  FCx             Tx   d 4 03 00 00 00
 0.172984 1  FBx             Tx   d 6 01 20 02 00 02 00
 0.173676 1  18A             Rx   d 8 11 00 B8 0B 00 B8 0B 00
 0.174109 1  18B             Rx   d 6 00 00 00 00 00 00
 0.174620 1  266             Rx   d 8 00 00 36 36 00 00 00 00
 0.174880 1  7D6             Rx   d 8 00 00 00 00 00 00 1B 00
 0.175126 1  256             Rx   d 8 C7 00 C2 06 01 A6 00 00
 0.175459 1  7D6             Rx   d 8 01 00 00 00 00 00 00 00
 0.175730 1  108             Rx   d 8 0B 00 00 00 00 02 00 00
 0.175970 1  7D6             Rx   d 8 02 00 00 00 E8 FF 00 00
 0.177799 1  FAx             Tx   d 7 03 00 C2 00 3C 2C 03
 0.177849 1  FCx             Tx   d 4 02 30 40 20
 0.178027 1  FBx             Tx   d 6 03 00 01 00 03 00
 0.179977 1  1D8             Rx   d 8 11 02 36 00 00 00 00 00
 0.180220 1  7D4             Rx   d 8 01 00 00 00 00 00 00 00
 0.180472 1  7D4             Rx   d 8 02 00 00 00 00 00 00 00
 0.180703 1  7D4             Rx   d 8 03 40 00 0F 00 2A 00 00
 0.180959 1  7D4             Rx   d 8 04 00 00 00 00 02 00 FF
 0.181203 1  7D4             Rx   d 8 05 00 00 00 00 40 00 00
 0.182870 1  FAx             Tx   d 7 02 10 41 00 3C 00 03
 0.182919 1  FCx             Tx   d 4 03 20 80 40
 0.183074 1  FBx             Tx   d 6 00 20 00 00 00 00
 0.183500 1  18A             Rx   d 8 12 01 B8 0B 00 B8 0B 00
 0.183953 1  18B             Rx   d 6 00 00 00 00 00 00
 0.184445 1  266             Rx   d 8 00 00 36 36 00 00 00 00
 0.184916 1  256             Rx   d 8 C7 01 C2 06 01 A5 00 00
 0.185194 1  7D6             Rx   d 8 00 00 00 00 00 00 18 00
 0.185445 1  108             Rx   d 8 0C 01 00 00 00 02 00 00
 0.185674 1  7D6             Rx   d 8 01 00 00 00 00 00 00 00
 0.185942 1  7D6             Rx   d 8 02 00 00 00 02 00 00 00
 0.187942 1  FAx             Tx   d 7 00 00 82 00 B4 14 00
 0.187974 1  FCx             Tx   d 4 03 20 80 40
 0.188128 1  FBx             Tx   d 6 01 00 01 00 02 00
 0.188982 1  94              Rx   d 1 00
 0.189926 1  1D8             Rx   d 8 12 03 36 00 00 00 00 00
 0.190193 1  7D4             Rx   d 8 01 00 00 00 00 00 00 00
 0.190479 1  7D4             Rx   d 8 02 00 00 00 00 00 00 00
 0.190713 1  7D4             Rx   d 8 03 2D 00 F1 FF 2B 00 00
 0.190954 1  7D4             Rx   d 8 04 00 00 00 00 02 00 FF
 0.191207 1  7D4             Rx   d 8 05 00 00 00 00 40 00 00
 0.192959 1  FAx             Tx   d 7 01 30 C2 00 78 2C 02
 0.193027 1  FCx             Tx   d 4 01 00 C0 00
 0.193147 1  FBx             Tx   d 6 03 00 00 00 03 00
 0.193645 1  18A             Rx   d 8 13 02 B8 0B 00 B8 0B 00
 0.194045 1  18B             Rx   d 6 00 00 00 00 00 00
 0.194471 1  266             Rx   d 8 00 00 36 36 00 00 00 00
 0.194899 1  256             Rx   d 8 C6 02 C2 06 01 A3 00 00
 0.195179 1  7D6             Rx   d 8 00 00 00 00 00 00 0F 00
 0.195445 1  108             Rx   d 8 0C 02 00 00 00 01 00 00
 0.195676 1  7D6             Rx   d 8 01 00 00 00 00 00 00 00
 0.195920 1  7D6             Rx   d 8 02 00 00 00 03 00 00 00
 0.198020 1  FAx             Tx   d 7 00 10 C2 00 78 2C 03
 0.198060 1  FCx             Tx   d 4 03 20 C0 00
 0.198198 1  FBx             Tx   d 6 02 30 00 00 01 00
 0.199953 1  1D8             Rx   d 8 13 04 36 00 00 00 00 00
 0.200222 1  7D4             Rx   d 8 01 00 00 00 00 00 00 00
 0.200471 1  7D4             Rx   d 8 02 00 00 00 00 00 00 00
 0.200703 1  7D4             Rx   d 8 03 2D 00 D8 FF 2B 00 00
 0.200941 1  7D4             Rx   d 8 04 00 00 00 00 02 00 FF
 0.201220 1  7D4             Rx   d 8 05 00 00 00 00 40 00 00
 0.203083 1  FAx             Tx   d 7 01 20 82 00 B4 00 03
 0.203115 1  FCx             Tx   d 4 01 30 00 20
 0.203241 1  FBx             Tx   d 6 01 10 02 00 00 00
 0.203500 1  18A             Rx   d 8 14 03 B8 0B 00 B8 0B 00
 0.203942 1  7D6             Rx   d 8 00 00 00 00 00 00 18 00
 0.204344 1  18B             Rx   d 6 00 00 00 00 00 00
 0.204676 1  266             Rx   d 8 00 00 36 36 00 00 00 00
 0.205132 1  256             Rx   d 8 C7 03 C2 06 01 A3 00 00
 0.205481 1  126             Rx   d 6 00 00 02 00 B6 03
 0.205704 1  108             Rx   d 8 0F 03 00 00 00 03 00 00
 0.205970 1  1D6             Rx   d 8 10 00 02 00 F3 0D 00 00
 0.206248 1  53B             Rx   d 8 EA FF 0A 00 F3 FF E4 FF
 0.206248 1  279             Rx   d 3 00 04 02
 0.206508 1  7D6             Rx   d 8 01 00 00 00 00 00 00 00
 0.206731 1  395             Rx   d 8 F7 11 FF FF FF FF 00 7D
 0.206978 1  7D6             Rx   d 8 02 00 00 00 03 00 00 00
 0.207227 1  210             Rx   d 8 00 00 00 00 00 00 00 00
 0.207471 1  7D6             Rx   d 8 21 00 00 00 00 00 00 00
 0.207719 1  128             Rx   d 8 06 00 00 00 00 00 00 00
 0.208019 1  7D6             Rx   d 8 22 00 00 00 00 00 00 00
 0.208072 1  FAx             Tx   d 7 00 20 C2 00 00 40 00
 0.208125 1  FCx             Tx   d 4 03 30 80 20
 0.208324 1  268             Rx   d 5 36 36 FF 01 FF
 0.208473 1  FBx             Tx   d 6 00 00 00 00 03 00
 0.208767 1  7D6             Rx   d 8 23 00 00 00 00 00 00 00
 0.208768 1  7D7             Rx   d 8 00 00 C0 FF 03 00 FC 3F
 0.209123 1  7D6             Rx   d 8 24 00 00 00 20 00 FC FF
 0.209532 1  7D5             Rx   d 8 20 18 00 00 00 00 14 00
 0.209860 1  7D5             Rx   d 8 21 DD 00 00 00 00 FA 14
 0.210354 1  1D8             Rx   d 8 14 05 36 00 00 00 00 00
 0.210648 1  7D4             Rx   d 8 01 00 00 00 00 00 00 00
 0.210894 1  7D5             Rx   d 8 22 66 00 00 00 00 00 00
 0.211128 1  7D4             Rx   d 8 02 00 00 00 00 00 00 00
 0.211349 1  7D5             Rx   d 8 23 FA 00 00 00 00 00 00
 0.211620 1  7D4             Rx   d 8 03 19 00 F6 FF 2C 00 00
 0.211853 1  7D5             Rx   d 8 24 FA 00 00 00 00 00 00
 0.212103 1  7D4             Rx   d 8 04 00 00 00 00 02 00 FF
 0.212353 1  7D5             Rx   d 8 25 FF 00 00 00 00 E5 36
 0.212673 1  7D4             Rx   d 8 05 00 00 00 00 40 00 00
 0.212950 1  7D5             Rx   d 8 26 51 7B 34 03 00 04 00
 0.213104 1  FAx             Tx   d 7 01 03 41 00 78 2C 00
 0.213148 1  FCx             Tx   d 4 00 30 00 60
 0.213250 1  7D5             Rx   d 8 27 9F 46 78 FA FA FA BF
 0.213442 1  FBx             Tx   d 6 00 20 02 00 00 00
 0.213693 1  7D5             Rx   d 8 28 FA FA 00 00 00 00 00
 0.213693 1  18A             Rx   d 8 15 04 B8 0B 00 B8 0B 00
 0.214069 1  7D5             Rx   d 8 29 00 00 00 00 00 10 27
 0.214472 1  18B             Rx   d 6 00 00 00 00 00 00
 0.214756 1  266             Rx   d 8 00 00 36 36 00 00 00 00
 0.215222 1  256             Rx   d 8 CB 04 C2 06 01 A6 00 00
 0.215499 1  7D5             Rx   d 8 2A FA 09 FA 43 00 00 80
 0.215728 1  108             Rx   d 8 0F 04 00 00 00 02 00 00
 0.215968 1  7D6             Rx   d 8 00 00 00 00 00 00 2B 00
 0.216243 1  7D6             Rx   d 8 01 00 00 00 00 00 00 00
 0.216496 1  7D6             Rx   d 8 02 00 00 00 02 00 00 00
 0.216747 1  7D5             Rx   d 8 2B 00 00 00 00 00 00 00
 0.216970 1  7D5             Rx   d 8 2E CD FF FF 00 00 00 00
 0.217230 1  7D5             Rx   d 8 2F 00 00 00 00 00 46 00
 0.217469 1  7D5             Rx   d 8 30 76 76 9C 7B 01 00 00
 0.217728 1  7D5             Rx   d 8 31 00 00 00 00 00 00 00
 0.217971 1  7D5             Rx   d 8 32 60 36 BC 00 00 00 00
 0.218157 1  FAx             Tx   d 7 00 01 82 00 3C 40 00
 0.218227 1  FCx             Tx   d 4 03 00 40 20
 0.218261 1  7D5             Rx   d 8 34 00 5E 60 44 45 00 00
 0.218474 1  FBx             Tx   d 6 03 20 00 00 02 00
 0.218692 1  7D5             Rx   d 8 3F 00 00 00 00 00 00 00
 0.219954 1  1D8             Rx   d 8 15 06 36 00 00 00 00 00
 0.220256 1  7D4             Rx   d 8 01 00 00 00 00 00 00 00
 0.220473 1  7D4             Rx   d 8 02 00 00 00 00 00 00 00
 0.220703 1  7D4             Rx   d 8 03 19 00 E7 FF 2A 00 00
 0.220970 1  7D4             Rx   d 8 04 00 00 00 00 03 00 FF
 0.221222 1  7D4             Rx   d 8 05 00 00 00 00 40 00 00
 0.221472 1  73B             Rx   d 8 00 49 FA 01 00 00 00 00
 0.221701 1  7D4             Rx   d 8 10 00 00 00 00 00 00 00
 0.221944 1  7D4             Rx   d 8 11 00 62 28 21 21 21 00
 0.222204 1  7D4             Rx   d 8 12 00 C0 FF 03 00 FC 3F
 0.223188 1  FAx             Tx   d 7 03 33 82 00 B4 2C 01
 0.223251 1  FCx             Tx   d 4 00 00 C0 00
 0.223459 1  FBx             Tx   d 6 02 30 03 00 03 00
 0.223733 1  18A             Rx   d 8 16 05 B8 0B 00 B8 0B 00
 0.223733 1  7D6             Rx   d 8 00 00 00 00 00 00 18 00
 0.224275 1  18B             Rx   d 6 00 00 00 00 00 00
 0.224649 1  266             Rx   d 8 00 00 36 36 00 00 00 00
 0.225165 1  256             Rx   d 8 CC 05 C2 06 01 A6 00 00
 0.225464 1  7D6             Rx   d 8 01 00 00 00 00 00 00 00
 0.225694 1  108             Rx   d 8 10 05 00 00 00 02 00 00
 0.225959 1  7D6             Rx   d 8 02 00 00 00 EE FF 00 00
 0.228262 1  FAx             Tx   d 7 03 01 41 00 B4 00 02
 0.228319 1  FCx             Tx   d 4 01 20 80 60
 0.228457 1  FBx             Tx   d 6 01 10 03 00 02 00
 0.229935 1  1D8             Rx   d 8 16 07 36 00 00 00 00 00
 0.230230 1  7D4             Rx   d 8 01 00 00 00 00 00 00 00
 0.230509 1  7D4             Rx   d 8 02 00 00 00 00 00 00 00
 0.230741 1  7D4             Rx   d 8 03 19 00 E7 FF 2C 00 00
 0.230975 1  7D4             Rx   d 8 04 00 00 00 00 02 00 FF
 0.231211 1  7D4             Rx   d 8 05 00 00 00 00 40 00 00
 0.233332 1  FAx             Tx   d 7 03 30 00 00 B4 00 00
 0.233358 1  FCx             Tx   d 4 01 10 40 20
 0.233450 1  18A             Rx   d 8 17 06 B8 0B 00 B8 0B 00
 0.233670 1  FBx             Tx   d 6 03 30 01 00 01 00
 0.233949 1  7D6             Rx   d 8 00 00 00 00 00 00 0F 00
 0.233950 1  18B             Rx   d 6 00 00 00 00 00 00
 0.234530 1  266             Rx   d 8 00 00 36 36 00 00 00 00
 0.234879 1  256             Rx   d 8 CC 06 C2 06 01 A5 00 00
 0.235452 1  108             Rx   d 8 11 06 00 00 00 02 00 00
 0.235729 1  7D6             Rx   d 8 01 00 00 00 00 00 00 00
 0.235938 1  7D6             Rx   d 8 02 00 00 00 FF FF 00 00
 0.237106 1  57B             Rx   d 3 0D 28 43
 0.238356 1  FAx             Tx   d 7 01 31 C2 00 B4 14 02
 0.238448 1  FCx             Tx   d 4 02 00 40 60
 0.238622 1  FBx             Tx   d 6 03 10 03 00 02 00
 0.240016 1  1D8             Rx   d 8 0F 00 36 00 00 00 00 00
 0.240227 1  7D4             Rx   d 8 01 00 00 00 00 00 00 00
 0.240514 1  7D4             Rx   d 8 02 00 00 00 00 00 00 00
 0.240710 1  7D4             Rx   d 8 03 19 00 E7 FF 2B 00 00
 0.240988 1  7D4             Rx   d 8 04 00 00 00 00 02 00 FF
 0.241244 1  7D4             Rx   d 8 05 00 00 00 00 40 00 00
 0.243494 1  FAx             Tx   d 7 03 02 82 00 3C 2C 02
 0.243495 1  FCx             Tx   d 4 01 10 00 20
 0.243557 1  18A             Rx   d 8 18 07 B8 0B 00 B8 0B 00
 0.243739 1  FBx             Tx   d 6 02 20 00 00 00 00
 0.244014 1  7D6             Rx   d 8 00 00 00 00 00 00 0F 00
 0.244015 1  18B             Rx   d 6 00 00 00 00 00 00
 0.244594 1  266             Rx   d 8 00 00 36 36 00 00 00 00
 0.244889 1  256             Rx   d 8 CB 07 C2 06 01 A3 00 00
 0.245454 1  108             Rx   d 8 12 07 00 00 00 02 00 00
 0.245685 1  7D6             Rx   d 8 01 00 00 00 00 00 00 00
 0.245951 1  7D6             Rx   d 8 02 00 00 00 FF FF 00 00
 0.248467 1  FAx             Tx   d 7 01 22 C2 00 B4 40 02
 0.248508 1  FCx             Tx   d 4 00 10 80 20
 0.248655 1  FBx             Tx   d 6 03 30 01 00 03 00
 0.249937 1  1D8             Rx   d 8 10 01 36 00 00 00 00 00
 0.250201 1  7D4             Rx   d 8 01 00 00 00 00 00 00 00
 0.250500 1  7D4             Rx   d 8 02 00 00 00 00 00 00 00
 0.250741 1  7D4             Rx   d 8 03 23 00 CF FF 2C 00 00
 0.250981 1  7D4             Rx   d 8 04 00 00 00 00 02 00 FF
 0.251255 1  7D4             Rx   d 8 05 00 00 00 00 40 00 00
 0.253500 1  18A             Rx   d 8 19 08 B8 0B 00 B8 0B 00
 0.253507 1  FAx             Tx   d 7 02 22 41 00 78 40 03
 0.253572 1  FCx             Tx   d 4 03 10 00 40
 0.253747 1  FBx             Tx   d 6 02 10 01 00 03 00
 0.254079 1  7D6             Rx   d 8 00 00 00 00 00 00 17 00
 0.254081 1  18B             Rx   d 6 00 00 00 00 00 00
 0.254498 1  7D6             Rx   d 8 01 00 00 00 00 00 00 00
 0.254854 1  266             Rx   d 8 00 00 36 36 00 00 00 00
 0.255191 1  256             Rx   d 8 CD 08 C2 06 01 A4 00 00
 0.255682 1  108             Rx   d 8 F6 08 00 00 00 E6 FF 00
 0.255938 1  7D6             Rx   d 8 02 00 00 00 04 00 00 00
 0.258511 1  FAx             Tx   d 7 01 00 82 00 3C 40 01
 0.258542 1  FCx             Tx   d 4 03 30 40 20
 0.258692 1  FBx             Tx   d 6 02 00 00 00 03 00
 0.259994 1  1D8             Rx   d 8 11 02 36 00 00 00 00 00
 0.260278 1  7D4             Rx   d 8 01 00 00 00 00 00 00 00
 0.260484 1  7D4             Rx   d 8 02 00 00 00 00 00 00 00
 0.260754 1  7D4             Rx   d 8 03 36 00 00 00 2D 00 00
 0.260994 1  7D4             Rx   d 8 04 00 00 00 00 02 00 FF
 0.261218 1  7D4             Rx   d 8 05 00 00 00 00 40 00 00
 0.263473 1  18A             Rx   d 8 1A 09 B8 0B 00 B8 0B 00
 0.263517 1  FAx             Tx   d 7 00 22 C2 00 B4 40 02
 0.263567 1  FCx             Tx   d 4 02 30 40 60
 0.263849 1  7D6             Rx   d 8 00 00 00 00 00 00 0F 00
 0.263980 1  FBx             Tx   d 6 02 30 02 00 02 00
 0.264243 1  18B             Rx   d 6 00 00 00 00 00 00
 0.264244 1  7D6             Rx   d 8 01 00 00 00 00 00 00 00
 0.264836 1  266             Rx   d 8 00 00 36 36 00 00 00 00
 0.265184 1  256             Rx   d 8 D1 09 C2 06 01 A7 00 00
 0.265640 1  108             Rx   d 8 15 09 00 00 00 03 00 00
 0.265941 1  7D6             Rx   d 8 02 00 00 00 03 00 00 00
 0.268544 1  FAx             Tx   d 7 03 11 00 00 78 00 02
 0.268589 1  FCx             Tx   d 4 03 20 80 00
 0.268767 1  FBx             Tx   d 6 01 20 00 00 00 00
 0.270036 1  1D8             Rx   d 8 12 03 36 00 00 00 00 00
 0.270335 1  7D4             Rx   d 8 01 00 00 00 00 00 00 00
 0.270625 1  54B             Rx   d 4 00 64 00 00
 0.270879 1  7D4             Rx   d 8 02 00 00 00 00 00 00 00
 0.271177 1  7D4             Rx   d 8 03 0F 00 D3 FF 2C 00 00
 0.271179 1  7D4             Rx   d 8 04 00 00 00 00 F8 FF FF
 0.271499 1  5BB             Rx   d 8 00 00 00 00 00 00 00 00
 0.271732 1  73B             Rx   d 8 01 00 80 00 80 F4 01 00
 0.271979 1  7D4             Rx   d 8 05 00 00 00 00 40 00 00
 0.272210 1  7D4             Rx   d 8 10 00 00 00 00 00 00 00
 0.272500 1  7D4             Rx   d 8 11 00 62 28 21 21 21 00
 0.272687 1  7D4             Rx   d 8 12 00 C0 FF 03 00 FC 3F
 0.273507 1  18A             Rx   d 8 1B 0A B8 0B 00 B8 0B 00
 0.273606 1  FAx             Tx   d 7 02 00 C2 00 00 00 02
 0.273662 1  FCx             Tx   d 4 01 30 C0 60
 0.273794 1  7D6             Rx   d 8 00 00 00 00 00 00 17 00
 0.273908 1  FBx             Tx   d 6 03 10 01 00 01 00
 0.274221 1  18B             Rx   d 6 00 00 00 00 00 00
 0.274223 1  7D6             Rx   d 8 01 00 00 00 00 00 00 00
 0.274841 1  266             Rx   d 8 00 00 36 36 00 00 00 00
 0.275139 1  256             Rx   d 8 D1 0A C2 06 01 A6 00 00
 0.275658 1  108             Rx   d 8 16 0A 00 00 00 03 00 00
 0.275935 1  7D6             Rx   d 8 02 00 00 00 02 00 00 00
 0.278702 1  FAx             Tx   d 7 03 03 82 00 00 40 02
 0.278703 1  FCx             Tx   d 4 02 00 80 20
 0.278856 1  FBx             Tx   d 6 03 20 02 00 03 00
 0.280135 1  1D8             Rx   d 8 13 04 36 00 00 00 00 00
 0.280470 1  7D4             Rx   d 8 01 00 00 00 00 00 00 00
 0.280691 1  7D4             Rx   d 8 02 00 00 00 00 00 00 00
 0.280931 1  7D4             Rx   d 8 03 14 00 D3 FF 2A 00 00
 0.281181 1  7D4             Rx   d 8 04 00 00 00 00 EF FF FF
 0.281461 1  7D4             Rx   d 8 05 00 00 00 00 40 00 00
 0.283496 1  18A             Rx   d 8 1C 0B B8 0B 00 B8 0B 00
 0.283709 1  FAx             Tx   d 7 02 03 82 00 00 14 03
 0.283744 1  FCx             Tx   d 4 01 10 C0 00
 0.283806 1  7D6             Rx   d 8 00 00 00 00 00 00 1F 00
 0.283954 1  FBx             Tx   d 6 02 30 02 00 01 00
 0.284261 1  18B             Rx   d 6 00 00 00 00 00 00
 0.284262 1  7D6             Rx   d 8 01 00 00 00 00 00 00 00
 0.284845 1  266             Rx   d 8 00 00 36 36 00 00 00 00
 0.285176 1  256             Rx   d 8 D1 0B C2 06 01 A5 00 00
 0.285673 1  108             Rx   d 8 17 0B 00 00 00 03 00 00
 0.285922 1  7D6             Rx   d 8 02 00 00 00 03 00 00 00
 0.288770 1  FAx             Tx   d 7 02 21 C2 00 3C 2C 00
 0.288811 1  FCx             Tx   d 4 03 10 80 00
 0.288869 1  94              Rx   d 1 00
 0.289012 1  FBx             Tx   d 6 01 00 01 00 03 00
 0.289994 1  1D8             Rx   d 8 14 05 36 00 00 00 00 00
 0.290489 1  7D4             Rx   d 8 01 00 00 00 00 00 00 00
 0.290794 1  7D4             Rx   d 8 02 00 00 00 00 00 00 00
 0.291035 1  7D4             Rx   d 8 03 31 00 00 00 2A 00 00
 0.291289 1  7D4             Rx   d 8 04 00 00 00 00 00 00 FF
 0.291538 1  7D4             Rx   d 8 05 00 00 00 00 40 00 00
 0.293473 1  18A             Rx   d 8 1D 0C B8 0B 00 B8 0B 00
 0.293747 1  7D6             Rx   d 8 00 00 00 00 00 00 20 00
 0.293799 1  FAx             Tx   d 7 01 32 82 00 3C 14 00
 0.293854 1  FCx             Tx   d 4 03 20 C0 40
 0.294056 1  18B             Rx   d 6 00 00 00 00 00 00
 0.294187 1  FBx             Tx   d 6 01 20 00 00 03 00
 0.294506 1  7D6             Rx   d 8 01 00 00 00 00 00 00 00
 0.294508 1  266             Rx   d 8 00 00 36 36 00 00 00 00
 0.294883 1  7D6             Rx   d 8 02 00 00 00 02 00 00 00
 0.295321 1  256             Rx   d 8 D0 0C C2 06 01 A3 00 00
 0.295674 1  108             Rx   d 8 19 0C 00 00 00 04 00 00
 0.298857 1  FAx             Tx   d 7 03 22 41 00 00 40 03
 0.298918 1  FCx             Tx   d 4 01 20 40 00
 0.299112 1  FBx             Tx   d 6 00 30 03 00 02 00
 0.300097 1  1D8             Rx   d 8 15 06 36 00 00 00 00 00
 0.300591 1  7D4             Rx   d 8 01 00 00 00 00 00 00 00
 0.300882 1  7D4             Rx   d 8 02 00 00 00 00 00 00 00
 0.301129 1  7D4             Rx   d 8 03 2D 00 DD FF 29 00 00
 0.301378 1  7D4             Rx   d 8 04 00 00 00 00 03 00 FF
 0.301681 1  7D4             Rx   d 8 05 00 00 00 00 40 00 00
 0.303455 1  18A             Rx   d 8 1E 0D B8 0B 00 B8 0B 00
 0.303739 1  7D6             Rx   d 8 00 00 00 00 00 00 0E 00
 0.303978 1  FAx             Tx   d 7 00 32 C2 00 B4 00 02
 0.303979 1  FCx             Tx   d 4 02 00 40 60
 0.304078 1  18B             Rx   d 6 00 00 00 00 00 00
 0.304252 1  FBx             Tx   d 6 01 10 00 00 01 00
 0.304555 1  126             Rx   d 6 00 00 02 00 B6 03
 0.304557 1  266             Rx   d 8 00 00 36 36 00 00 00 00
 0.304925 1  1D6             Rx   d 8 10 00 02 00 F3 0D 00 00
 0.305325 1  256             Rx   d 8 D2 0D C2 06 01 A4 00 00
 0.305619 1  108             Rx   d 8 19 0D 00 00 00 03 00 00
 0.306021 1  279             Rx   d 3 00 04 02
 0.306291 1  53B             Rx   d 8 EA FF 0B 00 C6 FF E3 FF
 0.306524 1  395             Rx   d 8 F7 11 FF FF FF FF 00 7D
 0.306781 1  7D6             Rx   d 8 01 00 00 00 00 00 00 00
 0.306983 1  210             Rx   d 8 00 00 00 00 00 00 00 00
 0.307271 1  7D6             Rx   d 8 02 00 00 00 01 00 00 00
 0.307507 1  128             Rx   d 8 06 00 00 00 00 00 00 00
 0.307799 1  7D6             Rx   d 8 21 00 00 00 00 00 00 00
 0.308046 1  268             Rx   d 5 36 36 FF 01 FF
 0.308351 1  7D6             Rx   d 8 22 00 00 00 00 00 00 00
 0.308601 1  7D7             Rx   d 8 00 00 C0 FF 03 00 FC 3F
 0.308603 1  7D6             Rx   d 8 23 00 00 00 00 00 00 00
 0.308896 1  7D6             Rx   d 8 24 00 00 00 30 00 FC FF
 0.308948 1  FAx             Tx   d 7 01 01 C2 00 B4 14 03
 0.308996 1  FCx             Tx   d 4 02 00 C0 60
 0.309283 1  7D5             Rx   d 8 20 18 00 00 00 00 14 00
 0.309460 1  FBx             Tx   d 6 01 10 01 00 02 00
 0.309673 1  7D5             Rx   d 8 21 DD 00 00 00 00 FA 14
 0.309674 1  7D5             Rx   d 8 22 66 00 00 00 00 00 00
 0.310257 1  1D8             Rx   d 8 16 07 36 00 00 00 00 00
 0.310609 1  7D5             Rx   d 8 23 FA 00 00 00 00 00 00
 0.311089 1  7D4             Rx   d 8 01 00 00 00 00 00 00 00
 0.311362 1  7D5             Rx   d 8 24 FA 00 00 00 00 00 00
 0.311660 1  7D4             Rx   d 8 02 00 00 00 00 00 00 00
 0.311908 1  7D5             Rx   d 8 25 FF 00 00 00 00 1C 3A
 0.312230 1  7D4             Rx   d 8 03 14 00 E7 FF 2A 00 00
 0.312480 1  7D5             Rx   d 8 26 51 7B 34 04 00 05 00
 0.312762 1  7D4             Rx   d 8 04 00 00 00 00 03 00 FF
 0.313058 1  7D5             Rx   d 8 27 9F 46 78 FA FA FA BF
 0.313059 1  7D4             Rx   d 8 05 00 00 00 00 40 00 00
 0.313360 1  7D5             Rx   d 8 28 FA FA 00 00 00 00 00
 0.313592 1  18A             Rx   d 8 1F 0E B8 0B 00 B8 0B 00
 0.313816 1  7D5             Rx   d 8 29 00 00 00 00 00 10 27
 0.313948 1  FAx             Tx   d 7 03 20 82 00 78 00 02
 0.314004 1  FCx             Tx   d 4 02 20 00 60
 0.314134 1  18B             Rx   d 6 00 00 00 00 00 00
 0.314254 1  FBx             Tx   d 6 01 20 02 00 03 00
 0.314557 1  7D5             Rx   d 8 2A FA 09 FA 43 00 00 80
 0.314558 1  266             Rx   d 8 00 00 36 36 00 00 00 00
 0.314974 1  7D6             Rx   d 8 00 00 00 00 00 00 17 00
 0.315373 1  256             Rx   d 8 D5 0E C2 06 01 A6 00 00
 0.315746 1  108             Rx   d 8 19 0E 00 00 00 02 00 00
 0.316227 1  7D6             Rx   d 8 01 00 00 00 00 00 00 00
 0.316490 1  7D6             Rx   d 8 02 00 00 00 01 00 00 00
 0.316763 1  7D5             Rx   d 8 2B 00 00 00 00 00 00 00
 0.317039 1  7D5             Rx   d 8 2E CD FF FF 00 00 00 00
 0.317229 1  7D5             Rx   d 8 2F 00 00 00 00 00 46 00
 0.317477 1  7D5             Rx   d 8 30 76 76 9C 7B 01 00 00
 0.317705 1  7D5             Rx   d 8 31 00 00 00 00 00 00 00
 0.317941 1  7D5             Rx   d 8 32 60 36 BC 00 00 00 00
 0.318200 1  7D5             Rx   d 8 34 00 5E 60 45 45 00 00
 0.318505 1  7D5             Rx   d 8 3F 00 00 00 00 00 00 00
 0.319031 1  FAx             Tx   d 7 03 32 41 00 00 14 02
 0.319032 1  FCx             Tx   d 4 03 30 C0 60
 0.319154 1  FBx             Tx   d 6 02 20 01 00 00 00
 0.320125 1  1D8             Rx   d 8 0F 00 36 00 00 00 00 00
 0.320702 1  7D4             Rx   d 8 01 00 00 00 00 00 00 00
 0.320938 1  7D4             Rx   d 8 02 00 00 00 00 00 00 00
 0.321209 1  7D4             Rx   d 8 03 14 00 DD FF 2A 00 00
 0.321460 1  73B             Rx   d 8 02 00 00 00 00 00 00 00
 0.321677 1  7D4             Rx   d 8 04 00 00 00 00 02 00 FF
 0.321924 1  7D4             Rx   d 8 05 00 00 00 00 40 00 00
 0.322150 1  7D4             Rx   d 8 10 00 00 00 00 00 00 00
 0.322471 1  7D4             Rx   d 8 11 00 62 28 21 21 21 00
 0.322677 1  7D4             Rx   d 8 12 00 C0 FF 03 00 FC 3F
 0.323449 1  18A             Rx   d 8 20 0F B8 0B 00 B8 0B 00
 0.323704 1  7D6             Rx   d 8 00 00 00 00 00 00 0E 00
 0.323987 1  18B             Rx   d 6 00 00 00 00 00 00
 0.324004 1  FAx             Tx   d 7 00 21 00 00 3C 14 03
 0.324105 1  FCx             Tx   d 4 02 20 00 60
 0.324223 1  FBx             Tx   d 6 03 30 03 00 03 00
 0.324567 1  7D6             Rx   d 8 01 00 00 00 00 00 00 00
 0.324568 1  266             Rx   d 8 00 00 36 36 00 00 00 00
 0.324897 1  7D6             Rx   d 8 02 00 00 00 EF FF 00 00
 0.325299 1  256             Rx   d 8 D6 0F C2 06 01 A6 00 00
 0.325645 1  108             Rx   d 8 1A 0F 00 00 00 02 00 00
 0.329086 1  FAx             Tx   d 7 03 31 41 00 3C 2C 02
 0.329103 1  FCx             Tx   d 4 02 10 00 40
 0.329348 1  FBx             Tx   d 6 03 30 01 00 02 00
 0.330018 1  1D8             Rx   d 8 10 01 36 00 00 00 00 00
 0.330471 1  7D4             Rx   d 8 01 00 00 00 00 00 00 00
 0.330956 1  7D4             Rx   d 8 02 00 00 00 00 00 00 00
 0.331299 1  7D4             Rx   d 8 03 23 00 D8 FF 2B 00 00
 0.331473 1  7D4             Rx   d 8 04 00 00 00 00 02 00 FF
 0.331764 1  7D4             Rx   d 8 05 00 00 00 00 40 00 00
 0.333444 1  18A             Rx   d 8 11 00 B8 0B 00 B8 0B 00
 0.333703 1  7D6             Rx   d 8 00 00 00 00 00 00 1A 00
 0.334007 1  18B             Rx   d 6 00 00 00 00 00 00
 0.334105 1  FAx             Tx   d 7 02 02 41 00 3C 40 01
 0.334143 1  FCx             Tx   d 4 01 20 40 00
 0.334203 1  7D6             Rx   d 8 01 00 00 00 00 00 00 00
 0.334497 1  FBx             Tx   d 6 03 10 01 00 03 00
 0.334677 1  266             Rx   d 8 00 00 36 36 00 00 00 00
 0.334678 1  7D6             Rx   d 8 02 00 00 00 EF FF 00 00
 0.335275 1  256             Rx   d 8 C6 00 C2 06 01 A5 00 00
 0.335658 1  108             Rx   d 8 0C 00 00 00 00 03 00 00
 0.337108 1  57B             Rx   d 3 0D 28 43
 0.339247 1  FAx             Tx   d 7 02 03 00 00 B4 40 02
 0.339248 1  FCx             Tx   d 4 02 10 C0 00
 0.339400 1  FBx             Tx   d 6 03 30 01 00 02 00
 0.340157 1  1D8             Rx   d 8 11 02 36 00 00 00 00 00
 0.340606 1  7D4             Rx   d 8 01 00 00 00 00 00 00 00
 0.341113 1  7D4             Rx   d 8 02 00 00 00 00 00 00 00
 0.341367 1  7D4             Rx   d 8 03 2D 00 0F 00 2C 00 00
 0.341625 1  7D4             Rx   d 8 04 00 00 00 00 E5 FF FF
 0.341857 1  7D4             Rx   d 8 05 00 00 00 00 40 00 00
 0.343478 1  18A             Rx   d 8 12 01 B8 0B 00 B8 0B 00
 0.343791 1  7D6             Rx   d 8 00 00 00 00 00 00 09 00
 0.344059 1  18B             Rx   d 6 00 00 00 00 00 00
 0.344182 1  FAx             Tx   d 7 00 10 41 00 3C 40 03
 0.344233 1  FCx             Tx   d 4 03 00 C0 00
 0.344285 1  7D6             Rx   d 8 01 00 00 00 00 00 00 00
 0.344520 1  FBx             Tx   d 6 00 20 01 00 00 00
 0.344784 1  266             Rx   d 8 00 00 36 36 00 00 00 00
 0.344785 1  7D6             Rx   d 8 02 00 00 00 03 00 00 00
 0.345150 1  256             Rx   d 8 C5 01 C2 06 01 A3 00 00
 0.345570 1  108             Rx   d 8 0D 01 00 00 00 03 00 00
 0.349261 1  FAx             Tx   d 7 00 32 41 00 B4 14 02
 0.349277 1  FCx             Tx   d 4 01 30 00 60
 0.349486 1  FBx             Tx   d 6 00 30 01 00 00 00
 0.350187 1  1D8             Rx   d 8 12 03 36 00 00 00 00 00
 0.350658 1  7D4             Rx   d 8 01 00 00 00 00 00 00 00
 0.351135 1  7D4             Rx   d 8 02 00 00 00 00 00 00 00
 0.351486 1  7D4             Rx   d 8 03 1E 00 BB FF 2C 00 00
 0.351711 1  7D4             Rx   d 8 04 00 00 00 00 03 00 FF
 0.351907 1  7D4             Rx   d 8 05 00 00 00 00 40 00 00
 0.353447 1  18A             Rx   d 8 13 02 B8 0B 00 B8 0B 00
 0.353703 1  7D6             Rx   d 8 00 00 00 00 00 00 0E 00
 0.353946 1  18B             Rx   d 6 00 00 00 00 00 00
 0.354180 1  7D6             Rx   d 8 01 00 00 00 00 00 00 00
 0.354239 1  FAx             Tx   d 7 03 23 82 00 00 2C 00
 0.354294 1  FCx             Tx   d 4 03 20 00 60
 0.354445 1  266             Rx   d 8 00 00 36 36 00 00 00 00
 0.354668 1  FBx             Tx   d 6 02 10 02 00 00 00
 0.354944 1  7D6             Rx   d 8 02 00 00 00 02 00 00 00
 0.354945 1  256             Rx   d 8 C7 02 C2 06 01 A4 00 00
 0.355525 1  108             Rx   d 8 0D 02 00 00 00 02 00 00
 0.359285 1  FAx             Tx   d 7 01 13 00 00 00 2C 00
 0.359299 1  FCx             Tx   d 4 03 10 80 40
 0.359493 1  FBx             Tx   d 6 03 10 03 00 03 00
 0.360240 1  1D8             Rx   d 8 13 04 36 00 00 00 00 00
 0.360713 1  7D4             Rx   d 8 01 00 00 00 00 00 00 00
 0.361188 1  7D4             Rx   d 8 02 00 00 00 00 00 00 00
 0.361480 1  7D4             Rx   d 8 03 14 00 C5 FF 2B 00 00
 0.361735 1  7D4             Rx   d 8 04 00 00 00 00 03 00 FF
 0.361978 1  7D4             Rx   d 8 05 00 00 00 00 40 00 00
 0.363479 1  18A             Rx   d 8 14 03 B8 0B 00 B8 0B 00
 0.363741 1  7D6             Rx   d 8 00 00 00 00 00 00 14 00
 0.363972 1  18B             Rx   d 6 00 00 00 00 00 00
 0.364218 1  7D6             Rx   d 8 01 00 00 00 00 00 00 00
 0.364271 1  FAx             Tx   d 7 02 11 41 00 00 00 03
 0.364363 1  FCx             Tx   d 4 01 20 40 40
 0.364535 1  266             Rx   d 8 00 00 36 36 00 00 00 00
 0.364682 1  FBx             Tx   d 6 00 00 00 00 00 00
 0.364961 1  7D6             Rx   d 8 02 00 00 00 02 00 00 00
 0.364962 1  256             Rx   d 8 CA 03 C2 06 01 A6 00 00
 0.365534 1  108             Rx   d 8 04 03 00 00 00 F9 FF 00
 0.369346 1  FAx             Tx   d 7 00 12 82 00 00 2C 02
 0.369369 1  FCx             Tx   d 4 03 30 C0 60
 0.369547 1  FBx             Tx   d 6 00 00 02 00 02 00
 0.369950 1  1D8             Rx   d 8 14 05 36 00 00 00 00 00
 0.370482 1  54B             Rx   d 4 00 64 00 00
 0.370846 1  7D4             Rx   d 8 01 00 00 00 00 00 00 00
 0.371364 1  73B             Rx   d 8 03 00 00 00 00 00 00 00
 0.371692 1  7D4             Rx   d 8 02 00 00 00 00 00 00 00
 0.371912 1  7D4             Rx   d 8 03 1E 00 FB FF 29 00 00
 0.372190 1  7D4             Rx   d 8 04 00 00 00 00 EF FF FF
 0.372481 1  7D4             Rx   d 8 05 00 00 00 00 40 00 00
 0.372736 1  7D4             Rx   d 8 10 00 00 00 00 00 00 00
 0.372997 1  7D4             Rx   d 8 11 00 62 28 21 21 21 00
 0.373230 1  7D4             Rx   d 8 12 00 C0 FF 03 00 FC 3F
 0.373504 1  18A             Rx   d 8 15 04 B8 0B 00 B8 0B 00
 0.373731 1  7D6             Rx   d 8 00 00 00 00 00 00 13 00
 0.373997 1  18B             Rx   d 6 00 00 00 00 00 00
 0.374247 1  7D6             Rx   d 8 01 00 00 00 00 00 00 00
 0.374333 1  FAx             Tx   d 7 02 02 41 00 00 14 02
 0.374465 1  FCx             Tx   d 4 00 10 00 20
 0.374568 1  266             Rx   d 8 00 00 36 36 00 00 00 00
 0.374723 1  FBx             Tx   d 6 03 00 00 00 03 00
 0.374998 1  7D6             Rx   d 8 02 00 00 00 02 00 00 00
 0.374998 1  256             Rx   d 8 CB 04 C2 06 01 A6 00 00
 0.375447 1  108             Rx   d 8 10 04 00 00 00 03 00 00
 0.379383 1  FAx             Tx   d 7 00 33 00 00 B4 2C 00
 0.379446 1  FCx             Tx   d 4 01 30 80 40
 0.379587 1  FBx             Tx   d 6 00 20 01 00 00 00
 0.379987 1  1D8             Rx   d 8 15 06 36 00 00 00 00 00
 0.380463 1  7D4             Rx   d 8 01 00 00 00 00 00 00 00
 0.380944 1  7D4             Rx   d 8 02 00 00 00 00 00 00 00
 0.381445 1  7D4             Rx   d 8 03 19 00 CA FF 2B 00 00
 0.381675 1  7D4             Rx   d 8 04 00 00 00 00 02 00 FF
 0.381968 1  7D4             Rx   d 8 05 00 00 00 00 40 00 00
 0.383442 1  18A             Rx   d 8 16 05 B8 0B 00 B8 0B 00
 0.383702 1  7D6             Rx   d 8 00 00 00 00 00 00 04 00
 0.383939 1  18B             Rx   d 6 00 00 00 00 00 00
 0.384192 1  7D6             Rx   d 8 01 00 00 00 00 00 00 00
 0.384474 1  266             Rx   d 8 00 00 36 36 00 00 00 00
 0.384505 1  FAx             Tx   d 7 00 30 41 00 B4 14 03
 0.384566 1  FCx             Tx   d 4 01 00 40 00
 0.384697 1  FBx             Tx   d 6 03 10 00 00 01 00
 0.385027 1  7D6             Rx   d 8 02 00 00 00 01 00 00 00
 0.385028 1  256             Rx   d 8 CB 05 C2 06 01 A5 00 00
 0.385461 1  108             Rx   d 8 10 05 00 00 00 02 00 00
 0.388781 1  94              Rx   d 1 00
 0.389483 1  FAx             Tx   d 7 00 13 41 00 78 40 00
 0.389498 1  FCx             Tx   d 4 02 10 40 60
 0.389643 1  FBx             Tx   d 6 03 30 03 00 03 00
 0.390132 1  1D8             Rx   d 8 16 07 36 00 00 00 00 00
 0.390479 1  7D4             Rx   d 8 01 00 00 00 00 00 00 00
 0.390930 1  7D4             Rx   d 8 02 00 00 00 00 00 00 00
 0.391481 1  7D4             Rx   d 8 03 0A 00 DD FF 2A 00 00
 0.391712 1  7D4             Rx   d 8 04 00 00 00 00 01 00 FF
 0.391973 1  7D4             Rx   d 8 05 00 00 00 00 40 00 00
 0.393477 1  18A             Rx   d 8 17 06 B8 0B 00 B8 0B 00
 0.393772 1  7D6             Rx   d 8 00 00 00 00 00 00 0D 00
 0.394009 1  18B             Rx   d 6 00 00 00 00 00 00
 0.394239 1  7D6             Rx   d 8 01 00 00 00 00 00 00 00
 0.394452 1  266             Rx   d 8 00 00 36 36 00 00 00 00
 0.394501 1  FAx             Tx   d 7 03 03 41 00 78 00 01
 0.394552 1  FCx             Tx   d 4 03 10 80 00
 0.394703 1  FBx             Tx   d 6 03 30 01 00 02 00
 0.395038 1  7D6             Rx   d 8 02 00 00 00 FF FF 00 00
 0.395039 1  256             Rx   d 8 CA 06 C2 06 01 A3 00 00
 0.395455 1  108             Rx   d 8 10 06 00 00 00 01 00 00
 0.399495 1  FAx             Tx   d 7 03 11 82 00 3C 00 03
 0.399513 1  FCx             Tx   d 4 00 10 00 40
 0.399689 1  FBx             Tx   d 6 02 10 03 00 01 00
 0.400140 1  1D8             Rx   d 8 0F 00 36 00 00 00 00 00
 0.400488 1  7D4             Rx   d 8 01 00 00 00 00 00 00 00
 0.400968 1  7D4             Rx   d 8 02 00 00 00 00 00 00 00
 0.401486 1  7D4             Rx   d 8 03 1E 00 EC FF 2C 00 00
 0.401721 1  7D4             Rx   d 8 04 00 00 00 00 03 00 FF
 0.401985 1  7D4             Rx   d 8 05 00 00 00 00 40 00 00
 0.403487 1  18A             Rx   d 8 18 07 B8 0B 00 B8 0B 00
 0.403811 1  7D6             Rx   d 8 00 00 00 00 00 00 20 00
 0.404085 1  18B             Rx   d 6 00 00 00 00 00 00
 0.404386 1  126             Rx   d 6 00 00 02 00 B6 03
 0.404387 1  266             Rx   d 8 00 00 36 36 00 00 00 00
 0.404492 1  FAx             Tx   d 7 03 01 82 00 00 00 02
 0.404539 1  FCx             Tx   d 4 01 10 40 00
 0.404767 1  1D6             Rx   d 8 10 00 02 00 F3 0D 00 00
 0.404979 1  FBx             Tx   d 6 00 20 03 00 00 00
 0.405195 1  256             Rx   d 8 CB 07 C2 06 01 A3 00 00
 0.405195 1  279             Rx   d 3 00 04 02
 0.405534 1  108             Rx   d 8 11 07 00 00 00 01 00 00
 0.405958 1  395             Rx   d 8 F7 11 FF FF FF FF 00 7D
 0.406248 1  210             Rx   d 8 00 00 00 00 00 00 00 00
 0.406737 1  128             Rx   d 8 06 00 00 00 00 00 00 00
 0.406997 1  53B             Rx   d 8 04 00 0B 00 EA FF E0 FF
 0.407257 1  268             Rx   d 5 36 36 FF 01 FF
 0.407534 1  7D6             Rx   d 8 01 00 00 00 00 00 00 00
 0.407781 1  7D7             Rx   d 8 00 00 C0 FF 03 00 FC 3F
 0.408102 1  7D6             Rx   d 8 02 00 00 00 03 00 00 00
 0.408444 1  7D6             Rx   d 8 21 00 00 00 00 00 00 00
 0.408445 1  7D6             Rx   d 8 22 00 00 00 00 00 00 00
 0.408675 1  7D6             Rx   d 8 23 00 00 00 00 00 00 00
 0.408927 1  7D6             Rx   d 8 24 00 00 00 30 00 FC FF
 0.409194 1  7D5             Rx   d 8 20 18 00 00 00 00 14 00
 0.409447 1  7D5             Rx   d 8 21 DD 00 00 00 00 FA 14
 0.409535 1  FAx             Tx   d 7 00 32 41 00 78 2C 00
 0.409586 1  FCx             Tx   d 4 01 30 80 20
 0.409773 1  7D5             Rx   d 8 22 66 00 00 00 00 00 00
 0.409896 1  FBx             Tx   d 6 02 20 00 00 01 00
 0.410180 1  7D5             Rx   d 8 23 FA 00 00 00 00 00 00
 0.410181 1  1D8             Rx   d 8 10 01 36 00 00 00 00 00
 0.410757 1  7D4             Rx   d 8 01 00 00 00 00 00 00 00
 0.411121 1  7D5             Rx   d 8 24 FA 00 00 00 00 00 00
 0.411621 1  7D4             Rx   d 8 02 00 00 00 00 00 00 00
 0.411901 1  7D5             Rx   d 8 25 FF 00 00 00 00 3D 3C
 0.412155 1  7D4             Rx   d 8 03 23 00 E7 FF 2A 00 00
 0.412371 1  7D5             Rx   d 8 26 51 7B 34 04 00 05 00
 0.412640 1  7D4             Rx   d 8 04 00 00 00 00 03 00 FF
 0.412856 1  7D5             Rx   d 8 27 9F 46 78 FA FA FA BF
 0.413099 1  7D4             Rx   d 8 05 00 00 00 00 40 00 00
 0.413376 1  7D5             Rx   d 8 28 FA FA 00 00 00 00 00
 0.413676 1  18A             Rx   d 8 19 08 B8 0B 00 B8 0B 00
 0.413968 1  7D5             Rx   d 8 29 00 00 00 00 00 10 27
 0.414232 1  18B             Rx   d 6 00 00 00 00 00 00
 0.414232 1  7D5             Rx   d 8 2A FA 09 FA 43 00 00 80
 0.414500 1  266             Rx   d 8 00 00 36 36 00 00 00 00
 0.414565 1  FAx             Tx   d 7 00 32 82 00 3C 40 00
 0.414610 1  FCx             Tx   d 4 00 20 00 00
 0.414747 1  FBx             Tx   d 6 02 10 00 00 02 00
 0.415052 1  7D6             Rx   d 8 00 00 00 00 00 00 21 00
 0.415053 1  256             Rx   d 8 CF 08 C2 06 01 A6 00 00
 0.415486 1  7D6             Rx   d 8 01 00 00 00 00 00 00 00
 0.415888 1  108             Rx   d 8 14 08 00 00 00 03 00 00
 0.416235 1  7D6             Rx   d 8 02 00 00 00 03 00 00 00
 0.416729 1  7D5             Rx   d 8 2B 00 00 00 00 00 00 00
 0.416994 1  7D5             Rx   d 8 2E CD FF FF 00 00 00 00
 0.417257 1  7D5             Rx   d 8 2F 00 00 00 00 00 46 00
 0.417516 1  7D5             Rx   d 8 30 76 76 9C 7B 01 00 00
 0.417755 1  7D5             Rx   d 8 31 00 00 00 00 00 00 00
 0.417998 1  7D5             Rx   d 8 32 60 36 BC 00 00 00 00
 0.418265 1  7D5             Rx   d 8 34 00 5E 60 45 45 00 00
 0.418506 1  7D5             Rx   d 8 3F 00 00 00 00 00 00 00
 0.419574 1  FAx             Tx   d 7 02 01 82 00 B4 40 02
 0.419652 1  FCx             Tx   d 4 00 30 00 60
 0.419772 1  FBx             Tx   d 6 03 20 00 00 01 00
 0.420025 1  1D8             Rx   d 8 11 02 36 00 00 00 00 00
 0.420444 1  7D4             Rx   d 8 01 00 00 00 00 00 00 00
 0.420819 1  7D4             Rx   d 8 02 00 00 00 00 00 00 00
 0.421162 1  7D4             Rx   d 8 03 14 00 E2 FF 2A 00 00
 0.421648 1  73B             Rx   d 8 00 4A FA 00 00 00 00 00
 0.421940 1  7D4             Rx   d 8 04 00 00 00 00 03 00 FF
 0.422228 1  7D4             Rx   d 8 05 00 00 00 00 40 00 00
 0.422443 1  7D4             Rx   d 8 10 00 00 00 00 00 00 00
 0.422676 1  7D4             Rx   d 8 11 00 62 28 21 21 21 00
 0.422904 1  7D4             Rx   d 8 12 00 C0 FF 03 00 FC 3F
 0.423464 1  18A             Rx   d 8 1A 09 B8 0B 00 B8 0B 00
 0.423702 1  7D6             Rx   d 8 00 00 00 00 00 00 13 00
 0.423956 1  18B             Rx   d 6 00 00 00 00 00 00
 0.424179 1  7D6             Rx   d 8 01 00 00 00 00 00 00 00
 0.424443 1  266             Rx   d 8 00 00 36 36 00 00 00 00
 0.424634 1  FAx             Tx   d 7 00 03 82 00 78 40 01
 0.424702 1  FCx             Tx   d 4 01 00 40 20
 0.424744 1  7D6             Rx   d 8 02 00 00 00 03 00 00 00
 0.424872 1  FBx             Tx   d 6 03 30 01 00 01 00
 0.425202 1  256             Rx   d 8 D0 09 C2 06 01 A6 00 00
 0.425203 1  108             Rx   d 8 14 09 00 00 00 02 00 00
 0.429744 1  FAx             Tx   d 7 00 33 00 00 B4 40 02
 0.429793 1  FCx             Tx   d 4 02 20 00 40
 0.430027 1  1D8             Rx   d 8 12 03 36 00 00 00 00 00
 0.430221 1  FBx             Tx   d 6 01 00 02 00 00 00
 0.430472 1  7D4             Rx   d 8 01 00 00 00 00 00 00 00
 0.430792 1  7D4             Rx   d 8 02 00 00 00 00 00 00 00
 0.431162 1  7D4             Rx   d 8 03 2D 00 F6 FF 2A 00 00
 0.431443 1  7D4             Rx   d 8 04 00 00 00 00 03 00 FF
 0.431898 1  7D4             Rx   d 8 05 00 00 00 00 40 00 00
 0.433443 1  18A             Rx   d 8 1B 0A B8 0B 00 B8 0B 00
 0.433734 1  7D6             Rx   d 8 00 00 00 00 00 00 0F 00
 0.433979 1  18B             Rx   d 6 00 00 00 00 00 00
 0.434182 1  7D6             Rx   d 8 01 00 00 00 00 00 00 00
 0.434447 1  266             Rx   d 8 00 00 36 36 00 00 00 00
 0.434679 1  7D6             Rx   d 8 02 00 00 00 04 00 00 00
 0.434727 1  FAx             Tx   d 7 01 00 C2 00 B4 00 02
 0.434792 1  FCx             Tx   d 4 00 20 00 60
 0.434922 1  FBx             Tx   d 6 03 10 00 00 01 00
 0.435232 1  256             Rx   d 8 D0 0A C2 06 01 A5 00 00
 0.435233 1  108             Rx   d 8 15 0A 00 00 00 02 00 00
 0.437105 1  57B             Rx   d 3 0D 28 43
 0.439780 1  FAx             Tx   d 7 01 33 41 00 78 00 01
 0.439800 1  FCx             Tx   d 4 01 30 00 60
 0.440011 1  1D8             Rx   d 8 13 04 36 00 00 00 00 00
 0.440128 1  FBx             Tx   d 6 00 30 03 00 02 00
 0.440478 1  7D4             Rx   d 8 01 00 00 00 00 00 00 00
 0.440479 1  7D4             Rx   d 8 02 00 00 00 00 00 00 00
 0.440992 1  7D4             Rx   d 8 03 28 00 CF FF 2A 00 00
 0.441452 1  7D4             Rx   d 8 04 00 00 00 00 F0 FF FF
 0.441905 1  7D4             Rx   d 8 05 00 00 00 00 40 00 00
 0.443487 1  18A             Rx   d 8 1C 0B B8 0B 00 B8 0B 00
 0.443743 1  7D6             Rx   d 8 00 00 00 00 00 00 1A 00
 0.443951 1  18B             Rx   d 6 00 00 00 00 00 00
 0.444189 1  7D6             Rx   d 8 01 00 00 00 00 00 00 00
 0.444480 1  266             Rx   d 8 00 00 36 36 00 00 00 00
 0.444685 1  7D6             Rx   d 8 02 00 00 00 03 00 00 00
 0.444793 1  FAx             Tx   d 7 03 03 C2 00 3C 40 01
 0.444806 1  FCx             Tx   d 4 02 20 80 60
 0.444952 1  256             Rx   d 8 CF 0B C2 06 01 A3 00 00
 0.445163 1  FBx             Tx   d 6 01 30 02 00 03 00
 0.445379 1  108             Rx   d 8 17 0B 00 00 00 03 00 00
 0.449834 1  FAx             Tx   d 7 01 03 00 00 3C 2C 00
 0.449835 1  FCx             Tx   d 4 00 30 80 40
 0.450001 1  1D8             Rx   d 8 14 05 36 00 00 00 00 00
 0.450182 1  FBx             Tx   d 6 03 00 01 00 02 00
 0.450370 1  7D4             Rx   d 8 01 00 00 00 00 00 00 00
 0.450773 1  7D4             Rx   d 8 02 00 00 00 00 00 00 00
 0.451180 1  7D4             Rx   d 8 03 1E 00 E2 FF 2A 00 00
 0.451491 1  7D4             Rx   d 8 04 00 00 00 00 03 00 FF
 0.451944 1  7D4             Rx   d 8 05 00 00 00 00 40 00 00
 0.453484 1  18A             Rx   d 8 1D 0C B8 0B 00 B8 0B 00
 0.453807 1  7D6             Rx   d 8 00 00 00 00 00 00 0F 00
 0.454078 1  18B             Rx   d 6 00 00 00 00 00 00
 0.454296 1  7D6             Rx   d 8 01 00 00 00 00 00 00 00
 0.454602 1  266             Rx   d 8 00 00 36 36 00 00 00 00
 0.454845 1  FAx             Tx   d 7 01 01 82 00 00 00 02
 0.454865 1  FCx             Tx   d 4 01 30 00 00
 0.454928 1  7D6             Rx   d 8 02 00 00 00 02 00 00 00
 0.454930 1  256             Rx   d 8 D1 0C C2 06 01 A4 00 00
 0.455070 1  FBx             Tx   d 6 01 10 00 00 02 00
 0.455341 1  108             Rx   d 8 17 0C 00 00 00 02 00 00
 0.459890 1  FAx             Tx   d 7 01 01 00 00 78 40 00
 0.459891 1  FCx             Tx   d 4 01 30 00 00
 0.459955 1  1D8             Rx   d 8 15 06 36 00 00 00 00 00
 0.460222 1  FBx             Tx   d 6 03 10 01 00 02 00
 0.460470 1  7D4             Rx   d 8 01 00 00 00 00 00 00 00
 0.460472 1  7D4             Rx   d 8 02 00 00 00 00 00 00 00
 0.460963 1  7D4             Rx   d 8 03 23 00 CA FF 29 00 00
 0.461483 1  7D4             Rx   d 8 04 00 00 00 00 03 00 FF
 0.461967 1  7D4             Rx   d 8 05 00 00 00 00 40 00 00
 0.463500 1  18A             Rx   d 8 1E 0D B8 0B 00 B8 0B 00
 0.463717 1  7D6             Rx   d 8 00 00 00 00 00 00 20 00
 0.463967 1  18B             Rx   d 6 00 00 00 00 00 00
 0.464216 1  7D6             Rx   d 8 01 00 00 00 00 00 00 00
 0.464470 1  266             Rx   d 8 00 00 36 36 00 00 00 00
 0.464710 1  7D6             Rx   d 8 02 00 00 00 01 00 00 00
 0.464899 1  FAx             Tx   d 7 01 22 41 00 3C 2C 01
 0.464945 1  FCx             Tx   d 4 01 10 40 40
 0.465017 1  256             Rx   d 8 D5 0D C2 06 01 A7 00 00
 0.465169 1  FBx             Tx   d 6 03 00 00 00 02 00
 0.465498 1  108             Rx   d 8 19 0D 00 00 00 03 00 00
 0.469965 1  1D8             Rx   d 8 16 07 36 00 00 00 00 00
 0.470001 1  FAx             Tx   d 7 02 22 41 00 B4 00 02
 0.470049 1  FCx             Tx   d 4 00 10 00 60
 0.470272 1  FBx             Tx   d 6 03 30 01 00 02 00
 0.470565 1  7D4             Rx   d 8 01 00 00 00 00 00 00 00
 0.470568 1  54B             Rx   d 4 00 64 00 00
 0.470912 1  7D4             Rx   d 8 02 00 00 00 00 00 00 00
 0.471298 1  7D4             Rx   d 8 03 28 00 DD FF 2B 00 00
 0.471608 1  73B             Rx   d 8 01 00 80 00 80 F4 01 00
 0.472103 1  7D4             Rx   d 8 04 00 00 00 00 02 00 FF
 0.472366 1  7D4             Rx   d 8 05 00 00 00 00 40 00 00
 0.472702 1  7D4             Rx   d 8 10 00 00 00 00 00 00 00
 0.472988 1  7D4             Rx   d 8 11 00 62 28 21 21 21 00
 0.473201 1  7D4             Rx   d 8 12 00 C0 FF 03 00 FC 3F
 0.473519 1  18A             Rx   d 8 1F 0E B8 0B 00 B8 0B 00
 0.473832 1  7D6             Rx   d 8 00 00 00 00 00 00 12 00
 0.474112 1  18B             Rx   d 6 00 00 00 00 00 00
 0.474398 1  7D6             Rx   d 8 01 00 00 00 00 00 00 00
 0.474744 1  266             Rx   d 8 00 00 36 36 00 00 00 00
 0.474746 1  7D6             Rx   d 8 02 00 00 00 03 00 00 00
 0.474969 1  256             Rx   d 8 D5 0E C2 06 01 A6 00 00
 0.475026 1  FAx             Tx   d 7 01 11 82 00 B4 14 01
 0.475053 1  FCx             Tx   d 4 01 10 40 40
 0.475222 1  FBx             Tx   d 6 01 00 01 00 01 00
 0.475475 1  108             Rx   d 8 19 0E 00 00 00 02 00 00
 0.479993 1  1D8             Rx   d 8 0F 00 36 00 00 00 00 00
 0.480037 1  FAx             Tx   d 7 02 10 00 00 3C 14 02
 0.480100 1  FCx             Tx   d 4 00 10 40 60
 0.480326 1  7D4             Rx   d 8 01 00 00 00 00 00 00 00
 0.480510 1  FBx             Tx   d 6 01 00 01 00 01 00
 0.480758 1  7D4             Rx   d 8 02 00 00 00 00 00 00 00
 0.480760 1  7D4             Rx   d 8 03 00 00 E2 FF 29 00 00
 0.481307 1  7D4             Rx   d 8 04 00 00 00 00 01 00 FF
 0.481731 1  7D4             Rx   d 8 05 00 00 00 00 40 00 00
 0.483508 1  18A             Rx   d 8 20 0F B8 0B 00 B8 0B 00
 0.483743 1  7D6             Rx   d 8 00 00 00 00 00 00 07 00
 0.483991 1  18B             Rx   d 6 00 00 00 00 00 00
 0.484232 1  7D6             Rx   d 8 01 00 00 00 00 00 00 00
 0.484471 1  266             Rx   d 8 00 00 36 36 00 00 00 00
 0.484701 1  7D6             Rx   d 8 02 00 00 00 02 00 00 00
 0.484918 1  256             Rx   d 8 D5 0F C2 06 01 A5 00 00
 0.485088 1  FAx             Tx   d 7 01 20 41 00 B4 00 02
 0.485140 1  FCx             Tx   d 4 02 30 80 00
 0.485252 1  108             Rx   d 8 1B 0F 00 00 00 03 00 00
 0.485388 1  FBx             Tx   d 6 00 00 02 00 00 00
 0.488842 1  94              Rx   d 1 00
 0.489990 1  1D8             Rx   d 8 10 01 36 00 00 00 00 00
 0.490156 1  FAx             Tx   d 7 01 20 41 00 78 00 01
 0.490195 1  FCx             Tx   d 4 00 20 00 00
 0.490225 1  7D4             Rx   d 8 01 00 00 00 00 00 00 00
 0.490474 1  FBx             Tx   d 6 01 00 03 00 00 00
 0.490795 1  7D4             Rx   d 8 02 00 00 00 00 00 00 00
 0.490797 1  7D4             Rx   d 8 03 1E 00 E2 FF 2A 00 00
 0.491370 1  7D4             Rx   d 8 04 00 00 00 00 EE FF FF
 0.491691 1  7D4             Rx   d 8 05 00 00 00 00 40 00 00
 0.493543 1  18A             Rx   d 8 11 00 B8 0B 00 B8 0B 00
 0.493768 1  7D6             Rx   d 8 00 00 00 00 00 00 20 00
 0.494007 1  18B             Rx   d 6 00 00 00 00 00 00
 0.494234 1  7D6             Rx   d 8 01 00 00 00 00 00 00 00
 0.494479 1  266             Rx   d 8 00 00 36 36 00 00 00 00
 0.494705 1  7D6             Rx   d 8 02 00 00 00 02 00 00 00
 0.494959 1  256             Rx   d 8 C4 00 C2 06 01 A3 00 00
 0.495191 1  FAx             Tx   d 7 02 33 82 00 78 14 01
 0.495235 1  FCx             Tx   d 4 00 20 80 40
 0.495279 1  108             Rx   d 8 0B 00 00 00 00 02 00 00
 0.495465 1  FBx             Tx   d 6 00 20 02 00 01 00
 0.499956 1  1D8             Rx   d 8 11 02 36 00 00 00 00 00
 0.500251 1  FAx             Tx   d 7 03 10 C2 00 3C 14 01
 0.500257 1  7D4             Rx   d 8 01 00 00 00 00 00 00 00
 0.500324 1  FCx             Tx   d 4 02 30 C0 60
 0.500481 1  FBx             Tx   d 6 00 20 03 00 01 00
 0.500883 1  7D4             Rx   d 8 02 00 00 00 00 00 00 00
 0.500885 1  7D4             Rx   d 8 03 19 00 D3 FF 2B 00 00
 0.501229 1  7D4             Rx   d 8 04 00 00 00 00 04 00 FF
 0.501657 1  7D4             Rx   d 8 05 00 00 00 00 40 00 00
 0.503509 1  18A             Rx   d 8 12 01 B8 0B 00 B8 0B 00
 0.503769 1  7D6             Rx   d 8 00 00 00 00 00 00 13 00
 0.504045 1  18B             Rx   d 6 00 00 00 00 00 00
 0.504311 1  126             Rx   d 6 00 00 02 00 B6 03
 0.504597 1  266             Rx   d 8 00 00 36 36 00 00 00 00
 0.504906 1  1D6             Rx   d 8 10 00 02 00 F3 0D 00 00
 0.504908 1  256             Rx   d 8 C5 01 C2 06 01 A3 00 00
 0.505200 1  279             Rx   d 3 00 03 02
 0.505248 1  FAx             Tx   d 7 02 20 C2 00 B4 2C 03
 0.505289 1  FCx             Tx   d 4 01 30 00 60
 0.505508 1  108             Rx   d 8 0D 01 00 00 00 03 00 00
 0.505719 1  FBx             Tx   d 6 02 30 01 00 02 00
 0.506013 1  395             Rx   d 8 F7 11 FF FF FF FF 00 7D
 0.506015 1  53B             Rx   d 8 EA FF 0C 00 D8 FF E3 FF
 0.506017 1  210             Rx   d 8 00 00 00 00 00 00 00 00
 0.506482 1  128             Rx   d 8 06 00 00 00 00 00 00 00
 0.506861 1  268             Rx   d 5 36 36 FF 01 FF
 0.507421 1  7D7             Rx   d 8 00 00 C0 FF 03 00 FC 3F
 0.507663 1  7D6             Rx   d 8 01 00 00 00 00 00 00 00
 0.507922 1  7D6             Rx   d 8 02 00 00 00 00 00 00 00
 0.508151 1  7D6             Rx   d 8 21 00 00 00 00 00 00 00
 0.508464 1  7D6             Rx   d 8 22 00 00 00 00 00 00 00
 0.508776 1  7D6             Rx   d 8 23 00 00 00 00 00 00 00
 0.509036 1  7D6             Rx   d 8 24 00 00 00 40 00 FC FF
 0.509282 1  7D5             Rx   d 8 20 18 00 00 00 00 14 00
 0.509569 1  7D5             Rx   d 8 21 DD 00 00 00 00 FA 14
 0.509861 1  7D5             Rx   d 8 22 66 00 00 00 00 00 00
 0.509863 1  7D5             Rx   d 8 23 FA 00 00 00 00 00 00
 0.510155 1  1D8             Rx   d 8 12 03 36 00 00 00 00 00
 0.510313 1  FAx             Tx   d 7 03 03 41 00 00 14 01
 0.510335 1  FCx             Tx   d 4 01 20 C0 40
 0.510401 1  7D4             Rx   d 8 01 00 00 00 00 00 00 00
 0.510654 1  FBx             Tx   d 6 03 20 01 00 01 00
 0.510911 1  7D5             Rx   d 8 24 FA 00 00 00 00 00 00
 0.510912 1  7D4             Rx   d 8 02 00 00 00 00 00 00 00
 0.511490 1  7D5             Rx   d 8 25 FF 00 00 00 00 C1 3F
 0.511864 1  7D4             Rx   d 8 03 14 00 00 00 2C 00 00
 0.512347 1  7D5             Rx   d 8 26 51 7B 34 04 00 05 00
 0.512605 1  7D4             Rx   d 8 04 00 00 00 00 03 00 FF
 0.512878 1  7D5             Rx   d 8 27 9F 46 78 FA FA FA BF
 0.513126 1  7D4             Rx   d 8 05 00 00 00 00 40 00 00
 0.513380 1  7D5             Rx   d 8 28 FA FA 00 00 00 00 00
 0.513717 1  18A             Rx   d 8 13 02 B8 0B 00 B8 0B 00
 0.514012 1  18C             Rx   d 6 00 00 00 00 00 00
 0.514014 1  18B             Rx   d 6 00 00 00 00 00 00
 0.514262 1  3D5             Rx   d 8 FF FF FF FF FF FF FF FF
 0.514540 1  266             Rx   d 8 00 00 36 36 00 00 00 00
 0.514749 1  510             Rx   d 8 00 00 00 00 00 00 00 00
 0.514998 1  256             Rx   d 8 C9 02 C2 06 01 A6 00 00
 0.515258 1  315             Rx   d 8 4F 42 46 50 00 9A 7D 00
 0.515329 1  FAx             Tx   d 7 01 30 41 00 B4 40 02
 0.515377 1  FCx             Tx   d 4 02 00 40 60
 0.515462 1  108             Rx   d 8 0D 02 00 00 00 02 00 00
 0.515719 1  FBx             Tx   d 6 02 00 03 00 01 00
 0.515976 1  5D5             Rx   d 8 00 00 00 00 00 43 43 00
 0.515978 1  7D5             Rx   d 8 29 00 00 00 00 00 10 27
 0.516565 1  595             Rx   d 7 00 00 43 FF FF FF FF
 0.516846 1  5D7             Rx   d 4 50 6E 05 00
 0.517315 1  335             Rx   d 8 0A 04 C4 3B FC 00 05 00
 0.517591 1  7D5             Rx   d 8 2A FA 09 FA 43 00 00 80
 0.517814 1  356             Rx   d 8 00 00 80 00 00 01 00 00
 0.518042 1  7D6             Rx   d 8 00 00 00 00 00 00 18 00
 0.518299 1  357             Rx   d 8 84 08 00 00 00 00 00 00
 0.518609 1  7D6             Rx   d 8 01 00 00 00 00 00 00 00
 0.518814 1  358             Rx   d 8 00 00 90 02 00 00 00 00
 0.519048 1  7D6             Rx   d 8 02 00 00 00 02 00 00 00
 0.519322 1  359             Rx   d 8 00 00 00 00 00 00 00 40
 0.519581 1  7D6             Rx   d 8 40 0D FF 00 00 00 00 00
 0.519812 1  7D5             Rx   d 8 2B 00 00 00 00 00 00 00
 0.520043 1  1D8             Rx   d 8 13 04 36 00 00 00 00 00
 0.520323 1  7D4             Rx   d 8 01 00 00 00 00 00 00 00
 0.520357 1  FAx             Tx   d 7 01 00 82 00 78 00 00
 0.520456 1  FCx             Tx   d 4 03 00 40 00
 0.520558 1  7D5             Rx   d 8 2E CD FF FF 00 00 00 00
 0.520785 1  FBx             Tx   d 6 02 00 02 00 03 00
 0.521086 1  7D4             Rx   d 8 02 00 00 00 00 00 00 00
 0.521088 1  7D5             Rx   d 8 2F 00 00 00 00 00 46 00
 0.521647 1  73B             Rx   d 8 02 00 00 00 00 00 00 00
 0.521994 1  7D4             Rx   d 8 03 1E 00 CF FF 2B 00 00
 0.522515 1  7D5             Rx   d 8 30 76 76 9C 7B 01 00 00
 0.522774 1  7D4             Rx   d 8 04 00 00 00 00 03 00 FF
 0.523048 1  7D5             Rx   d 8 31 00 00 00 00 00 00 00
 0.523280 1  7D4             Rx   d 8 05 00 00 00 00 40 00 00
 0.523503 1  18A             Rx   d 8 14 03 B8 0B 00 B8 0B 00
 0.523759 1  7D5             Rx   d 8 32 60 36 BC 00 00 00 00
 0.523989 1  18B             Rx   d 6 00 00 00 00 00 00
 0.524224 1  7D4             Rx   d 8 10 00 00 00 00 00 00 00
 0.524471 1  266             Rx   d 8 00 00 36 36 00 00 00 00
 0.524701 1  7D5             Rx   d 8 34 00 5E 60 45 45 00 00
 0.524940 1  256             Rx   d 8 CA 03 C2 06 01 A6 00 00
 0.525147 1  7D4             Rx   d 8 11 00 62 28 21 21 21 00
 0.525455 1  FAx             Tx   d 7 01 02 82 00 00 2C 02
 0.525512 1  108             Rx   d 8 10 03 00 00 00 04 00 00
 0.525562 1  FCx             Tx   d 4 01 30 C0 20
 0.525607 1  FBx             Tx   d 6 01 10 01 00 02 00
 0.525921 1  7D6             Rx   d 8 00 00 00 00 00 00 05 00
 0.525922 1  7D4             Rx   d 8 12 00 C0 FF 03 00 FC 3F
 0.526543 1  7D6             Rx   d 8 01 00 00 00 00 00 00 00
 0.526861 1  7D6             Rx   d 8 02 00 00 00 03 00 00 00
 0.527401 1  7D5             Rx   d 8 3F 00 00 00 00 00 00 00
 0.527653 1  7D5             Rx   d 8 40 50 00 00 28 00 00 00
 0.527905 1  7D5             Rx   d 8 42 FA 00 EE 00 EE 2B 00
 0.528092 1  7D5             Rx   d 8 43 D6 DC B2 B7 41 00 00
 0.528336 1  7D5             Rx   d 8 44 2C 54 37 5C 4B 49 00
 0.528682 1  7D5             Rx   d 8 45 0A 00 00 FF FF FF FF
 0.528978 1  7D5             Rx   d 8 46 44 44 45 44 59 48 48
 0.529285 1  7D5             Rx   d 8 48 46 43 00 02 80 11 00
 0.529289 1  7D5             Rx   d 8 49 00 00 00 00 00 00 00
 0.529929 1  1D8             Rx   d 8 14 05 36 00 00 00 00 00
 0.530221 1  7D4             Rx   d 8 01 00 00 00 00 00 00 00
 0.530475 1  7D4             Rx   d 8 02 00 00 00 00 00 00 00
 0.530514 1  FAx             Tx   d 7 02 10 82 00 78 14 03
 0.530559 1  FCx             Tx   d 4 00 30 00 20
 0.530715 1  FBx             Tx   d 6 02 10 00 00 00 00
 0.531062 1  7D4             Rx   d 8 03 2D 00 D8 FF 2A 00 00
 0.531065 1  7D4             Rx   d 8 04 00 00 00 00 02 00 FF
 0.531468 1  7D4             Rx   d 8 05 00 00 00 00 40 00 00
 0.533497 1  18A             Rx   d 8 15 04 B8 0B 00 B8 0B 00
 0.533748 1  7D6             Rx   d 8 00 00 00 00 00 00 0A 00
 0.533967 1  18B             Rx   d 6 00 00 00 00 00 00
 0.534241 1  7D6             Rx   d 8 01 00 00 00 00 00 00 00
 0.534470 1  266             Rx   d 8 00 00 36 36 00 00 00 00
 0.534701 1  7D6             Rx   d 8 02 00 00 00 01 00 00 00
 0.534920 1  256             Rx   d 8 C9 04 C2 06 01 A4 00 00
 0.535187 1  108             Rx   d 8 0F 04 00 00 00 02 00 00
 0.535508 1  FAx             Tx   d 7 02 02 C2 00 78 40 03
 0.535550 1  FCx             Tx   d 4 02 20 40 40
 0.535709 1  FBx             Tx   d 6 02 30 02 00 03 00
 0.537094 1  57B             Rx   d 3 0D 28 43
 0.539975 1  1D8             Rx   d 8 15 06 36 00 00 00 00 00
 0.540227 1  7D4             Rx   d 8 01 00 00 00 00 00 00 00
 0.540474 1  7D4             Rx   d 8 02 00 00 00 00 00 00 00
 0.540720 1  7D4             Rx   d 8 03 23 00 E7 FF 2B 00 00
 0.540978 1  7D4             Rx   d 8 04 00 00 00 00 04 00 FF
 0.541217 1  7D4             Rx   d 8 05 00 00 00 00 40 00 00
 0.543149 1  FAx             Tx   d 7 00 33 82 00 78 2C 00
 0.543181 1  FCx             Tx   d 4 03 10 00 20
 0.543468 1  FBx             Tx   d 6 03 10 01 00 02 00
 0.543612 1  18A             Rx   d 8 16 05 B8 0B 00 B8 0B 00
 0.543988 1  7D6             Rx   d 8 00 00 00 00 00 00 13 00
 0.544466 1  18B             Rx   d 6 00 00 00 00 00 00
 0.544686 1  266             Rx   d 8 00 00 36 36 00 00 00 00
 0.545147 1  256             Rx   d 8 C9 05 C2 06 01 A3 00 00
 0.545463 1  7D6             Rx   d 8 01 00 00 00 00 00 00 00
 0.545748 1  108             Rx   d 8 10 05 00 00 00 02 00 00
 0.545982 1  7D6             Rx   d 8 02 00 00 00 02 00 00 00
 0.548197 1  FAx             Tx   d 7 01 11 41 00 3C 14 01
 0.548235 1  FCx             Tx   d 4 00 20 80 00
 0.548368 1  FBx             Tx   d 6 00 20 00 00 00 00
 0.549925 1  1D8             Rx   d 8 16 07 36 00 00 00 00 00
 0.550216 1  7D4             Rx   d 8 01 00 00 00 00 00 00 00
 0.550457 1  7D4             Rx   d 8 02 00 00 00 00 00 00 00
 0.550712 1  7D4             Rx   d 8 03 2D 00 D8 FF 2C 00 00
 0.550935 1  7D4             Rx   d 8 04 00 00 00 00 02 00 FF
 0.551209 1  7D4             Rx   d 8 05 00 00 00 00 40 00 00
 0.553228 1  FAx             Tx   d 7 03 23 00 00 00 00 03
 0.553265 1  FCx             Tx   d 4 02 00 80 20
 0.553514 1  18A             Rx   d 8 17 06 B8 0B 00 B8 0B 00
 0.553708 1  FBx             Tx   d 6 03 00 03 00 02 00
 0.553960 1  7D6             Rx   d 8 00 00 00 00 00 00 17 00
 0.553962 1  18B             Rx   d 6 00 00 00 00 00 00
 0.554540 1  266             Rx   d 8 00 00 36 36 00 00 00 00
 0.554885 1  256             Rx   d 8 CA 06 C2 06 01 A3 00 00
 0.555456 1  108             Rx   d 8 10 06 00 00 00 01 00 00
 0.555684 1  7D6             Rx   d 8 01 00 00 00 00 00 00 00
 0.555914 1  7D6             Rx   d 8 02 00 00 00 02 00 00 00
 0.558243 1  FAx             Tx   d 7 03 22 C2 00 3C 2C 02
 0.558289 1  FCx             Tx   d 4 00 20 80 20
 0.558458 1  FBx             Tx   d 6 02 20 00 00 02 00
 0.559920 1  1D8             Rx   d 8 0F 00 36 00 00 00 00 00
 0.560199 1  7D4             Rx   d 8 01 00 00 00 00 00 00 00
 0.560449 1  7D4             Rx   d 8 02 00 00 00 00 00 00 00
 0.560681 1  7D4             Rx   d 8 03 14 00 F6 FF 2C 00 00
 0.560957 1  7D4             Rx   d 8 04 00 00 00 00 03 00 FF
 0.561200 1  7D4             Rx   d 8 05 00 00 00 00 40 00 00
 0.563256 1  FAx             Tx   d 7 01 23 82 00 78 00 03
 0.563308 1  FCx             Tx   d 4 02 10 00 20
 0.563449 1  18A             Rx   d 8 18 07 B8 0B 00 B8 0B 00
 0.563674 1  FBx             Tx   d 6 01 20 02 00 03 00
 0.564011 1  7D6             Rx   d 8 00 00 00 00 00 00 0F 00
 0.564012 1  18B             Rx   d 6 00 00 00 00 00 00
 0.564450 1  7D6             Rx   d 8 01 00 00 00 00 00 00 00
 0.564788 1  266             Rx   d 8 00 00 36 36 00 00 00 00
 0.565125 1  256             Rx   d 8 CE 07 C2 06 01 A6 00 00
 0.565626 1  108             Rx   d 8 07 07 00 00 00 F8 FF 00
 0.565885 1  7D6             Rx   d 8 02 00 00 00 03 00 00 00
 0.568267 1  FAx             Tx   d 7 02 31 C2 00 00 2C 01
 0.568318 1  FCx             Tx   d 4 00 30 00 60
 0.568447 1  FBx             Tx   d 6 01 20 02 00 03 00
 0.569947 1  1D8             Rx   d 8 10 01 36 00 00 00 00 00
 0.570221 1  7D4             Rx   d 8 01 00 00 00 00 00 00 00
 0.570501 1  54B             Rx   d 4 00 64 00 00
 0.570758 1  7D4             Rx   d 8 02 00 00 00 00 00 00 00
 0.571023 1  7D4             Rx   d 8 03 14 00 D8 FF 2B 00 00
 0.571319 1  7D4             Rx   d 8 04 00 00 00 00 01 00 FF
 0.571320 1  73B             Rx   d 8 03 00 00 00 00 00 00 00
 0.571596 1  7D4             Rx   d 8 05 00 00 00 00 40 00 00
 0.571856 1  7D4             Rx   d 8 10 00 00 00 00 00 00 00
 0.572095 1  7D4             Rx   d 8 11 00 62 28 21 21 21 00
 0.572329 1  7D4             Rx   d 8 12 00 C0 FF 03 00 FC 3F
 0.573281 1  FAx             Tx   d 7 01 02 82 00 78 40 02
 0.573334 1  FCx             Tx   d 4 01 30 00 00
 0.573495 1  18A             Rx   d 8 19 08 B8 0B 00 B8 0B 00
 0.573698 1  FBx             Tx   d 6 03 20 01 00 00 00
 0.573948 1  7D6             Rx   d 8 00 00 00 00 00 00 19 00
 0.573950 1  18B             Rx   d 6 00 00 00 00 00 00
 0.574530 1  266             Rx   d 8 00 00 36 36 00 00 00 00
 0.574900 1  256             Rx   d 8 CF 08 C2 06 01 A6 00 00
 0.575446 1  108             Rx   d 8 0F 08 00 00 00 FF FF 00
 0.575677 1  7D6             Rx   d 8 01 00 00 00 00 00 00 00
 0.575904 1  7D6             Rx   d 8 02 00 00 00 03 00 00 00
 0.578294 1  FAx             Tx   d 7 02 01 82 00 3C 14 01
 0.578376 1  FCx             Tx   d 4 02 10 C0 60
 0.578557 1  FBx             Tx   d 6 01 10 02 00 03 00
 0.578935 1  554             Rx   d 7 4C 01 56 02 2B 40 01
 0.579478 1  6D4             Rx   d 8 15 04 C4 3B 60 1B 1A 2E
 0.579879 1  304             Rx   d 8 00 10 00 00 01 00 00 00
 0.580367 1  1D8             Rx   d 8 11 02 36 00 00 00 00 00
 0.580656 1  305             Rx   d 8 00 00 00 00 00 00 00 00
 0.580915 1  7D4             Rx   d 8 01 00 00 00 00 00 00 00
 0.581168 1  304             Rx   d 8 00 00 00 00 00 00 00 00
 0.581469 1  7D4             Rx   d 8 02 00 00 00 00 00 00 00
 0.581754 1  305             Rx   d 8 00 00 00 00 00 00 00 00
 0.582022 1  7D4             Rx   d 8 03 2D 00 D3 FF 2C 00 00
 0.582330 1  7D4             Rx   d 8 04 00 00 00 00 02 00 FF
 0.582627 1  7D4             Rx   d 8 05 00 00 00 00 40 00 00
 0.582628 1  7D4             Rx   d 8 40 1B 00 02 00 02 03 01
 0.582858 1  7D4             Rx   d 8 41 01 00 00 00 00 00 00
 0.583161 1  7D4             Rx   d 8 42 00 00 00 00 00 00 00
 0.583335 1  FAx             Tx   d 7 01 22 82 00 00 00 03
 0.583349 1  7D4             Rx   d 8 43 1E 01 00 03 00 00 00
 0.583477 1  FCx             Tx   d 4 00 00 40 40
 0.583588 1  FBx             Tx   d 6 03 00 01 00 00 00
 0.583923 1  18A             Rx   d 8 1A 09 B8 0B 00 B8 0B 00
 0.583923 1  7D4             Rx   d 8 44 FC 00 80 02 00 00 00
 0.584464 1  18B             Rx   d 6 00 00 00 00 00 00
 0.584785 1  266             Rx   d 8 00 00 36 36 00 00 00 00
 0.585259 1  256             Rx   d 8 CE 09 C2 06 01 A4 00 00
 0.585554 1  7D6             Rx   d 8 00 00 00 00 00 00 21 00
 0.585778 1  108             Rx   d 8 15 09 00 00 00 03 00 00
 0.586026 1  7D4             Rx   d 8 45 06 01 80 02 00 00 00
 0.586309 1  7D6             Rx   d 8 01 00 00 00 00 00 00 00
 0.586557 1  7D4             Rx   d 8 46 CC 02 00 06 00 00 00
 0.586792 1  7D6             Rx   d 8 02 00 00 00 01 00 00 00
 0.588360 1  FAx             Tx   d 7 03 30 82 00 B4 2C 00
 0.588397 1  FCx             Tx   d 4 01 30 80 00
 0.588576 1  FBx             Tx   d 6 00 00 00 00 00 00
 0.589001 1  94              Rx   d 1 00
 0.589898 1  1D8             Rx   d 8 12 03 36 00 00 00 00 00
 0.590191 1  7D4             Rx   d 8 01 00 00 00 00 00 00 00
 0.590469 1  7D4             Rx   d 8 02 00 00 00 00 00 00 00
 0.590675 1  7D4             Rx   d 8 03 23 00 DD FF 2B 00 00
 0.590924 1  7D4             Rx   d 8 04 00 00 00 00 EF FF FF
 0.591175 1  7D4             Rx   d 8 05 00 00 00 00 40 00 00
 0.593426 1  FAx             Tx   d 7 01 30 00 00 3C 00 02
 0.593463 1  FCx             Tx   d 4 02 10 C0 20
 0.593512 1  18A             Rx   d 8 1B 0A B8 0B 00 B8 0B 00
 0.593635 1  FBx             Tx   d 6 01 00 03 00 01 00
 0.593948 1  7D6             Rx   d 8 00 00 00 00 00 00 09 00
 0.593948 1  18B             Rx   d 6 00 00 00 00 00 00
 0.594498 1  266             Rx   d 8 00 00 36 36 00 00 00 00
 0.594879 1  256             Rx   d 8 CE 0A C2 06 01 A3 00 00
 0.595471 1  108             Rx   d 8 16 0A 00 00 00 03 00 00
 0.595703 1  7D6             Rx   d 8 01 00 00 00 00 00 00 00
 0.595929 1  7D6             Rx   d 8 02 00 00 00 01 00 00 00
 0.598468 1  FAx             Tx   d 7 03 12 82 00 78 2C 01
 0.598550 1  FCx             Tx   d 4 00 00 80 40
 0.598674 1  FBx             Tx   d 6 01 10 01 00 02 00
 0.599962 1  1D8             Rx   d 8 13 04 36 00 00 00 00 00
 0.600197 1  7D4             Rx   d 8 01 00 00 00 00 00 00 00
 0.600462 1  7D4             Rx   d 8 02 00 00 00 00 00 00 00
 0.600738 1  7D4             Rx   d 8 03 19 00 D3 FF 2B 00 00
 0.600987 1  7D4             Rx   d 8 04 00 00 00 00 03 00 FF
 0.601238 1  7D4             Rx   d 8 05 00 00 00 00 40 00 00
 0.603484 1  18A             Rx   d 8 1C 0B B8 0B 00 B8 0B 00
 0.603500 1  FAx             Tx   d 7 01 01 00 00 3C 14 02
 0.603581 1  FCx             Tx   d 4 03 20 C0 60
 0.603730 1  FBx             Tx   d 6 00 20 02 00 03 00
 0.604045 1  7D6             Rx   d 8 00 00 00 00 00 00 18 00
 0.604046 1  18B             Rx   d 6 00 00 00 00 00 00
 0.604447 1  126             Rx   d 6 00 00 02 00 B6 03
 0.604818 1  266             Rx   d 8 00 00 36 36 00 00 00 00
 0.605107 1  256             Rx   d 8 CF 0B C2 06 01 A3 00 00
 0.605604 1  108             Rx   d 8 15 0B 00 00 00 01 00 00
 0.605856 1  1D6             Rx   d 8 10 00 02 00 F3 0D 00 00
 0.606125 1  53B             Rx   d 8 04 00 0C 00 C6 FF E2 FF
 0.606480 1  279             Rx   d 3 00 04 02
 0.606759 1  7D6             Rx   d 8 01 00 00 00 00 00 00 00
 0.606759 1  395             Rx   d 8 F7 11 FF FF FF FF 00 7D
 0.606980 1  7D6             Rx   d 8 02 00 00 00 02 00 00 00
 0.607232 1  210             Rx   d 8 00 00 00 00 00 00 00 00
 0.607482 1  7D6             Rx   d 8 21 00 00 00 00 00 00 00
 0.607708 1  128             Rx   d 8 06 00 00 00 00 00 00 00
 0.608015 1  7D6             Rx   d 8 22 00 00 00 00 00 00 00
 0.608261 1  268             Rx   d 5 36 36 FF 01 FF
 0.608489 1  FAx             Tx   d 7 00 20 C2 00 78 40 02
 0.608513 1  FCx             Tx   d 4 01 00 80 40
 0.608576 1  7D6             Rx   d 8 23 00 00 00 00 00 00 00
 0.608720 1  FBx             Tx   d 6 02 20 02 00 01 00
 0.609035 1  7D7             Rx   d 8 00 00 C0 FF 03 00 FC 3F
 0.609036 1  7D6             Rx   d 8 24 00 00 00 30 00 FC FF
 0.609445 1  7D5             Rx   d 8 20 18 00 00 00 00 14 00
 0.609781 1  7D5             Rx   d 8 21 DD 00 00 00 00 FA 14
 0.610064 1  1D8             Rx   d 8 14 05 36 00 00 00 00 00
 0.610568 1  7D5             Rx   d 8 22 66 00 00 00 00 00 00
 0.610825 1  7D4             Rx   d 8 01 00 00 00 00 00 00 00
 0.611094 1  7D5             Rx   d 8 23 FA 00 00 00 00 00 00
 0.611353 1  7D4             Rx   d 8 02 00 00 00 00 00 00 00
 0.611619 1  7D5             Rx   d 8 24 FA 00 00 00 00 00 00
 0.611859 1  7D4             Rx   d 8 03 0F 00 CA FF 2B 00 00
 0.612084 1  7D5             Rx   d 8 25 FF 00 00 00 00 66 39
 0.612353 1  7D4             Rx   d 8 04 00 00 00 00 02 00 FF
 0.612701 1  7D5             Rx   d 8 26 51 7B 34 05 00 05 00
 0.612978 1  7D4             Rx   d 8 05 00 00 00 00 40 00 00
 0.613230 1  7D5             Rx   d 8 27 9F 46 78 FA FA FA BF
 0.613448 1  FAx             Tx   d 7 00 03 41 00 3C 14 01
 0.613499 1  FCx             Tx   d 4 02 20 40 60
 0.613549 1  7D5             Rx   d 8 28 FA FA 00 00 00 00 00
 0.613549 1  7D5             Rx   d 8 29 00 00 00 00 00 10 27
 0.613799 1  FBx             Tx   d 6 00 30 00 00 03 00
 0.614048 1  18A             Rx   d 8 1D 0C B8 0B 00 B8 0B 00
 0.614048 1  7D5             Rx   d 8 2A FA 09 FA 43 00 00 80
 0.614683 1  18B             Rx   d 6 00 00 00 00 00 00
 0.614969 1  266             Rx   d 8 00 00 36 36 00 00 00 00
 0.615449 1  256             Rx   d 8 D3 0C C2 06 01 A6 00 00
 0.615709 1  7D6             Rx   d 8 00 00 00 00 00 00 18 00
 0.615966 1  108             Rx   d 8 18 0C 00 00 00 03 00 00
 0.616226 1  7D6             Rx   d 8 01 00 00 00 00 00 00 00
 0.616479 1  7D6             Rx   d 8 02 00 00 00 01 00 00 00
 0.616729 1  7D5             Rx   d 8 2B 00 00 00 00 00 00 00
 0.616941 1  7D5             Rx   d 8 2E CD FF FF 00 00 00 00
 0.617231 1  7D5             Rx   d 8 2F 00 00 00 00 00 46 00
 0.617470 1  7D5             Rx   d 8 30 76 76 9C 7B 01 00 00
 0.617730 1  7D5             Rx   d 8 31 00 00 00 00 00 00 00
 0.617963 1  7D5             Rx   d 8 32 60 36 BC 00 00 00 00
 0.618181 1  7D5             Rx   d 8 34 00 5E 60 45 45 00 00
 0.618487 1  7D5             Rx   d 8 3F 00 00 00 00 00 00 00
 0.618503 1  FAx             Tx   d 7 02 01 82 00 78 2C 01
 0.618580 1  FCx             Tx   d 4 02 10 40 20
 0.618723 1  FBx             Tx   d 6 00 00 02 00 01 00
 0.620013 1  1D8             Rx   d 8 15 06 36 00 00 00 00 00
 0.620293 1  7D4             Rx   d 8 01 00 00 00 00 00 00 00
 0.620533 1  7D4             Rx   d 8 02 00 00 00 00 00 00 00
 0.620761 1  7D4             Rx   d 8 03 28 00 CF FF 2B 00 00
 0.621014 1  7D4             Rx   d 8 04 00 00 00 00 E5 FF FF
 0.621285 1  7D4             Rx   d 8 05 00 00 00 00 40 00 00
 0.621525 1  73B             Rx   d 8 00 49 FA 01 00 00 00 00
 0.621755 1  7D4             Rx   d 8 10 00 00 00 00 00 00 00
 0.622025 1  7D4             Rx   d 8 11 00 62 28 21 21 21 00
 0.622263 1  7D4             Rx   d 8 12 00 C0 FF 03 00 FC 3F
 0.623447 1  18A             Rx   d 8 1E 0D B8 0B 00 B8 0B 00
 0.623497 1  FAx             Tx   d 7 01 33 00 00 78 14 01
 0.623587 1  FCx             Tx   d 4 01 10 80 20
 0.623730 1  FBx             Tx   d 6 00 00 02 00 00 00
 0.624099 1  7D6             Rx   d 8 00 00 00 00 00 00 17 00
 0.624100 1  18B             Rx   d 6 00 00 00 00 00 00
 0.624444 1  7D6             Rx   d 8 01 00 00 00 00 00 00 00
 0.624815 1  266             Rx   d 8 00 00 36 36 00 00 00 00
 0.625101 1  256             Rx   d 8 D4 0D C2 06 01 A6 00 00
 0.625621 1  108             Rx   d 8 1A 0D 00 00 00 04 00 00
 0.625904 1  7D6             Rx   d 8 02 00 00 00 02 00 00 00
 0.628519 1  FAx             Tx   d 7 00 02 C2 00 00 2C 01
 0.628610 1  FCx             Tx   d 4 02 10 40 40
 0.628702 1  FBx             Tx   d 6 01 20 00 00 02 00
 0.630016 1  1D8             Rx   d 8 16 07 36 00 00 00 00 00
 0.630275 1  7D4             Rx   d 8 01 00 00 00 00 00 00 00
 0.630527 1  7D4             Rx   d 8 02 00 00 00 00 00 00 00
 0.630781 1  7D4             Rx   d 8 03 23 00 EC FF 2C 00 00
 0.631010 1  7D4             Rx   d 8 04 00 00 00 00 F8 FF FF
 0.631295 1  7D4             Rx   d 8 05 00 00 00 00 40 00 00
 0.633572 1  FAx             Tx   d 7 02 31 C2 00 00 14 02
 0.633595 1  FCx             Tx   d 4 01 30 C0 00
 0.633642 1  18A             Rx   d 8 1F 0E B8 0B 00 B8 0B 00
 0.633785 1  FBx             Tx   d 6 02 20 02 00 03 00
 0.634109 1  7D6             Rx   d 8 00 00 00 00 00 00 3D 00
 0.634110 1  18B             Rx   d 6 00 00 00 00 00 00
 0.634673 1  266             Rx   d 8 00 00 36 36 00 00 00 00
 0.635025 1  256             Rx   d 8 D4 0E C2 06 01 A5 00 00
 0.635532 1  108             Rx   d 8 19 0E 00 00 00 02 00 00
 0.635760 1  7D6             Rx   d 8 01 00 00 00 00 00 00 00
 0.636051 1  7D6             Rx   d 8 02 00 00 00 02 00 00 00
 0.637121 1  57B             Rx   d 3 0D 28 43
 0.638586 1  FAx             Tx   d 7 01 00 82 00 78 2C 01
 0.638613 1  FCx             Tx   d 4 03 10 40 20
 0.638749 1  FBx             Tx   d 6 02 20 03 00 02 00
 0.640037 1  1D8             Rx   d 8 0F 00 36 00 00 00 00 00
 0.640354 1  7D4             Rx   d 8 01 00 00 00 00 00 00 00
 0.640571 1  7D4             Rx   d 8 02 00 00 00 00 00 00 00
 0.640836 1  7D4             Rx   d 8 03 1E 00 EC FF 2C 00 00
 0.641055 1  7D4             Rx   d 8 04 00 00 00 00 04 00 FF
 0.641319 1  7D4             Rx   d 8 05 00 00 00 00 40 00 00
 0.643481 1  18A             Rx   d 8 20 0F B8 0B 00 B8 0B 00
 0.643641 1  FAx             Tx   d 7 01 22 C2 00 3C 2C 03
 0.643655 1  FCx             Tx   d 4 01 30 80 40
 0.643712 1  7D6             Rx   d 8 00 00 00 00 00 00 04 00
 0.643911 1  FBx             Tx   d 6 03 30 01 00 01 00
 0.644265 1  18B             Rx   d 6 00 00 00 00 00 00
 0.644266 1  7D6             Rx   d 8 01 00 00 00 00 00 00 00
 0.644660 1  266             Rx   d 8 00 00 36 36 00 00 00 00
 0.645061 1  256             Rx   d 8 D3 0F C2 06 01 A3 00 00
 0.645386 1  108             Rx   d 8 1B 0F 00 00 00 03 00 00
 0.645909 1  7D6             Rx   d 8 02 00 00 00 01 00 00 00
 0.648696 1  FAx             Tx   d 7 03 11 C2 00 78 2C 03
 0.648715 1  FCx             Tx   d 4 03 10 80 60
 0.648825 1  FBx             Tx   d 6 03 10 01 00 02 00
 0.650126 1  1D8             Rx   d 8 10 01 36 00 00 00 00 00
 0.650491 1  7D4             Rx   d 8 01 00 00 00 00 00 00 00
 0.650712 1  7D4             Rx   d 8 02 00 00 00 00 00 00 00
 0.651017 1  7D4             Rx   d 8 03 14 00 CF FF 2B 00 00
 0.651238 1  7D4             Rx   d 8 04 00 00 00 00 03 00 FF
 0.651514 1  7D4             Rx   d 8 05 00 00 00 00 40 00 00
 0.653608 1  18A             Rx   d 8 11 00 B8 0B 00 B8 0B 00
 0.653717 1  FAx             Tx   d 7 01 13 82 00 78 40 03
 0.653733 1  FCx             Tx   d 4 01 10 00 60
 0.653919 1  7D6             Rx   d 8 00 00 00 00 00 00 0E 00
 0.654114 1  FBx             Tx   d 6 03 20 02 00 00 00
 0.654358 1  18B             Rx   d 6 00 00 00 00 00 00
 0.654358 1  7D6             Rx   d 8 01 00 00 00 00 00 00 00
 0.654949 1  266             Rx   d 8 00 00 36 36 00 00 00 00
 0.655287 1  256             Rx   d 8 C4 00 C2 06 01 A3 00 00
 0.655769 1  108             Rx   d 8 0A 00 00 00 00 01 00 00
 0.656063 1  7D6             Rx   d 8 02 00 00 00 02 00 00 00
 0.658705 1  FAx             Tx   d 7 00 22 82 00 B4 2C 03
 0.658748 1  FCx             Tx   d 4 03 00 00 20
 0.658911 1  FBx             Tx   d 6 03 00 03 00 01 00
 0.659937 1  1D8             Rx   d 8 11 02 36 00 00 00 00 00
 0.660505 1  7D4             Rx   d 8 01 00 00 00 00 00 00 00
 0.660724 1  7D4             Rx   d 8 02 00 00 00 00 00 00 00
 0.660996 1  7D4             Rx   d 8 03 14 00 CF FF 2B 00 00
 0.661200 1  7D4             Rx   d 8 04 00 00 00 00 02 00 FF
 0.661494 1  7D4             Rx   d 8 05 00 00 00 00 40 00 00
 0.663491 1  18A             Rx   d 8 12 01 B8 0B 00 B8 0B 00
 0.663723 1  7D6             Rx   d 8 00 00 00 00 00 00 13 00
 0.663758 1  FAx             Tx   d 7 00 22 82 00 00 14 00
 0.663813 1  FCx             Tx   d 4 03 20 40 20
 0.663992 1  FBx             Tx   d 6 03 10 01 00 00 00
 0.664335 1  18B             Rx   d 6 00 00 00 00 00 00
 0.664336 1  7D6             Rx   d 8 01 00 00 00 00 00 00 00
 0.664700 1  266             Rx   d 8 00 00 36 36 00 00 00 00
 0.665123 1  256             Rx   d 8 C8 01 C2 06 01 A6 00 00
 0.665493 1  108             Rx   d 8 0C 01 00 00 00 02 00 00
 0.666006 1  7D6             Rx   d 8 02 00 00 00 FF FF 00 00
 0.668764 1  FAx             Tx   d 7 02 00 82 00 B4 00 02
 0.668812 1  FCx             Tx   d 4 03 10 C0 20
 0.668988 1  FBx             Tx   d 6 00 00 02 00 03 00
 0.669948 1  1D8             Rx   d 8 12 03 36 00 00 00 00 00
 0.670337 1  54B             Rx   d 4 00 64 00 00
 0.670669 1  7D4             Rx   d 8 01 00 00 00 00 00 00 00
